<Qucs Dataset 25.1.2>
<indep time 207>
0.000000000000e+00
5.025130000000e-08
1.005026000000e-07
2.010052000000e-07
4.020104000000e-07
8.040208000000e-07
1.608041600000e-06
3.216083200000e-06
6.432166400000e-06
1.145729640000e-05
1.648242640000e-05
2.150755640000e-05
2.653268640000e-05
3.155781640000e-05
3.658294640000e-05
4.160807640000e-05
4.663320640000e-05
5.165833640000e-05
5.668346640000e-05
6.170859640000e-05
6.673372640000e-05
7.175885640000e-05
7.678398640000e-05
8.180911640000e-05
8.683424640000e-05
9.185937640000e-05
9.688450640000e-05
1.019096364000e-04
1.069347664000e-04
1.119598964000e-04
1.169850264000e-04
1.220101564000e-04
1.270352864000e-04
1.320604164000e-04
1.370855464000e-04
1.421106764000e-04
1.471358064000e-04
1.521609364000e-04
1.571860664000e-04
1.622111964000e-04
1.672363264000e-04
1.722614564000e-04
1.772865864000e-04
1.823117164000e-04
1.873368464000e-04
1.923619764000e-04
1.973871064000e-04
2.024122364000e-04
2.074373664000e-04
2.124624964000e-04
2.174876264000e-04
2.225127564000e-04
2.275378864000e-04
2.325630164000e-04
2.375881464000e-04
2.426132764000e-04
2.476384064000e-04
2.526635364000e-04
2.576886664000e-04
2.627137964000e-04
2.677389264000e-04
2.727640564000e-04
2.777891864000e-04
2.828143164000e-04
2.878394464000e-04
2.928645764000e-04
2.978897064000e-04
3.029148364000e-04
3.079399664000e-04
3.129650964000e-04
3.179902264000e-04
3.230153564000e-04
3.280404864000e-04
3.330656164000e-04
3.380907464000e-04
3.431158764000e-04
3.481410064000e-04
3.531661364000e-04
3.581912664000e-04
3.632163964000e-04
3.682415264000e-04
3.732666564000e-04
3.782917864000e-04
3.833169164000e-04
3.883420464000e-04
3.933671764000e-04
3.983923064000e-04
4.034174364000e-04
4.084425664000e-04
4.134676964000e-04
4.184928264000e-04
4.235179564000e-04
4.285430864000e-04
4.335682164000e-04
4.385933464000e-04
4.436184764000e-04
4.486436064000e-04
4.536687364000e-04
4.586938664000e-04
4.637189964000e-04
4.687441264000e-04
4.737692564000e-04
4.787943864000e-04
4.838195164000e-04
4.888446464000e-04
4.938697764000e-04
4.988949064000e-04
5.039200364000e-04
5.089451664000e-04
5.139702964000e-04
5.189954264000e-04
5.240205564000e-04
5.290456864000e-04
5.340708164000e-04
5.390959464000e-04
5.441210764000e-04
5.491462064000e-04
5.541713364000e-04
5.591964664000e-04
5.642215964000e-04
5.692467264000e-04
5.742718564000e-04
5.792969864000e-04
5.843221164000e-04
5.893472464000e-04
5.943723764000e-04
5.993975064000e-04
6.044226364000e-04
6.094477664000e-04
6.144728964000e-04
6.194980264000e-04
6.245231564000e-04
6.295482864000e-04
6.345734164000e-04
6.395985464000e-04
6.446236764000e-04
6.496488064000e-04
6.546739364000e-04
6.596990664000e-04
6.647241964000e-04
6.697493264000e-04
6.747744564000e-04
6.797995864000e-04
6.848247164000e-04
6.898498464000e-04
6.948749764000e-04
6.999001064000e-04
7.049252364000e-04
7.099503664000e-04
7.149754964000e-04
7.200006264000e-04
7.250257564000e-04
7.300508864000e-04
7.350760164000e-04
7.401011464000e-04
7.451262764000e-04
7.501514064000e-04
7.551765364000e-04
7.602016664000e-04
7.652267964000e-04
7.702519264000e-04
7.752770564000e-04
7.803021864000e-04
7.853273164000e-04
7.903524464000e-04
7.953775764000e-04
8.004027064000e-04
8.054278364000e-04
8.104529664000e-04
8.154780964000e-04
8.205032264000e-04
8.255283564000e-04
8.305534864000e-04
8.355786164000e-04
8.406037464000e-04
8.456288764000e-04
8.506540064000e-04
8.556791364000e-04
8.607042664000e-04
8.657293964000e-04
8.707545264000e-04
8.757796564000e-04
8.808047864000e-04
8.858299164000e-04
8.908550464000e-04
8.958801764000e-04
9.009053064000e-04
9.059304364000e-04
9.109555664000e-04
9.159806964000e-04
9.210058264000e-04
9.260309564000e-04
9.310560864000e-04
9.360812164000e-04
9.411063464000e-04
9.461314764000e-04
9.511566064000e-04
9.561817364000e-04
9.612068664000e-04
9.662319964000e-04
9.712571264000e-04
9.762822564000e-04
9.813073864000e-04
9.863325164000e-04
9.913576464000e-04
9.963827764000e-04
1.000000000000e-03
</indep>
<dep tran.v(vin) time>
0.000000000000e+00
3.157382245806e-04
6.314764176852e-04
1.262952583561e-03
2.525903152650e-03
5.051790189541e-03
1.010345145362e-02
2.020587152331e-02
4.040349260689e-02
7.192615478870e-02
1.033771192905e-01
1.347250350522e-01
1.659386537354e-01
1.969868608720e-01
2.278387068800e-01
2.584634379149e-01
2.888305265257e-01
3.189097020853e-01
3.486709809652e-01
3.780846964239e-01
4.071215281789e-01
4.357525316347e-01
4.639491667346e-01
4.916833264106e-01
5.189273646012e-01
5.456541238093e-01
5.718369621737e-01
5.974497800264e-01
6.224670459090e-01
6.468638220236e-01
6.706157890907e-01
6.936992705918e-01
7.160912563706e-01
7.377694255698e-01
7.587121688813e-01
7.788986100868e-01
7.983086268677e-01
8.169228708634e-01
8.347227869586e-01
8.516906317787e-01
8.678094913777e-01
8.830632980978e-01
8.974368465863e-01
9.109158089525e-01
9.234867490502e-01
9.351371358712e-01
9.458553560363e-01
9.556307253720e-01
9.644534995604e-01
9.723148838533e-01
9.792070418380e-01
9.851231032497e-01
9.900571708195e-01
9.940043261529e-01
9.969606346328e-01
9.989231493415e-01
9.998899139982e-01
9.998599649092e-01
9.988333319286e-01
9.968110384281e-01
9.937951002774e-01
9.897885238344e-01
9.847953029487e-01
9.788204149801e-01
9.718698158372e-01
9.639504340405e-01
9.550701638156e-01
9.452378572245e-01
9.344633153412e-01
9.227572784822e-01
9.101314154998e-01
8.965983121508e-01
8.821714585503e-01
8.668652357248e-01
8.506949012766e-01
8.336765741748e-01
8.158272186875e-01
7.971646274714e-01
7.777074038356e-01
7.574749431976e-01
7.364874137492e-01
7.147657363525e-01
6.923315636858e-01
6.692072586591e-01
6.454158721226e-01
6.209811198891e-01
5.959273590935e-01
5.702795639128e-01
5.440633006714e-01
5.173047023563e-01
4.900304425666e-01
4.622677089248e-01
4.340441759757e-01
4.053879775999e-01
3.763276789687e-01
3.468922480701e-01
3.171110268330e-01
2.870137018779e-01
2.566302749251e-01
2.259910328881e-01
1.951265176829e-01
1.640674957828e-01
1.328449275503e-01
1.014899363745e-01
7.003377764702e-02
3.850780760542e-02
6.943452076965e-03
-2.462782484757e-02
-5.617455217799e-02
-8.766528339570e-02
-1.190686278004e-01
-1.503532818009e-01
-1.814880601195e-01
-2.124419268781e-01
-2.431840265354e-01
-2.736837146447e-01
-3.039105884005e-01
-3.338345169454e-01
-3.634256714047e-01
-3.926545546208e-01
-4.214920305566e-01
-4.499093533388e-01
-4.778781959129e-01
-5.053706782797e-01
-5.323593952874e-01
-5.588174439489e-01
-5.847184502602e-01
-6.100365954899e-01
-6.347466419164e-01
-6.588239579851e-01
-6.822445428620e-01
-7.049850503581e-01
-7.270228122016e-01
-7.483358606339e-01
-7.689029503080e-01
-7.887035794658e-01
-8.077180103753e-01
-8.259272890052e-01
-8.433132639191e-01
-8.598586043688e-01
-8.755468175705e-01
-8.903622651448e-01
-9.042901787058e-01
-9.173166745822e-01
-9.294287676569e-01
-9.406143843112e-01
-9.508623744597e-01
-9.601625226652e-01
-9.685055583216e-01
-9.758831648951e-01
-9.822879882141e-01
-9.877136438004e-01
-9.921547232331e-01
-9.956067995399e-01
-9.980664316101e-01
-9.995311676247e-01
-9.999995475004e-01
-9.994711043453e-01
-9.979463649237e-01
-9.954268491319e-01
-9.919150684822e-01
-9.874145236002e-01
-9.819297007345e-01
-9.754660672856e-01
-9.680300663549e-01
-9.596291103227e-01
-9.502715734595e-01
-9.399667835775e-01
-9.287250127334e-01
-9.165574669883e-01
-9.034762752375e-01
-8.894944771202e-01
-8.746260100210e-01
-8.588856951770e-01
-8.422892229037e-01
-8.248531369545e-01
-8.065948180291e-01
-7.875324664487e-01
-7.676850840129e-01
-7.470724550586e-01
-7.257151267383e-01
-7.036343885385e-01
-6.808522510575e-01
-6.573914240649e-01
-6.332752938639e-01
-6.085278999794e-01
-5.831739111948e-01
-5.572386009614e-01
-5.307478222055e-01
-5.037279815574e-01
-4.762060130288e-01
-4.482093511642e-01
-4.197659036934e-01
-3.909040237129e-01
-3.616524814224e-01
-3.320404354461e-01
-3.020974037668e-01
-2.718532343015e-01
-2.413380751487e-01
-2.105823445354e-01
-1.796167004962e-01
-1.484720103123e-01
-1.171793197420e-01
-8.576982207416e-02
-5.427482703366e-02
-2.272572957110e-02
-2.449293598295e-16
</dep>
<dep tran.v(vout3) time>
0.000000000000e+00
1.261686160338e-03
2.523372194951e-03
5.046743383643e-03
1.009347871767e-02
2.018689303657e-02
4.037327088846e-02
8.074242037941e-02
1.614518721010e-01
2.874160522811e-01
4.130937293968e-01
5.383596250071e-01
6.630888710461e-01
7.871571345837e-01
9.104407413783e-01
1.032816799474e+00
1.154163321487e+00
1.274359346433e+00
1.393285060065e+00
1.510821914484e+00
1.626852746043e+00
1.741261892630e+00
1.853935308459e+00
1.964760678039e+00
2.073627528055e+00
2.180427337390e+00
2.285053645685e+00
2.387402158767e+00
2.487370853320e+00
2.584860078175e+00
2.679772653871e+00
2.772013969174e+00
2.861492075984e+00
2.948117780161e+00
3.031804731426e+00
3.112469508488e+00
3.190031702901e+00
3.264413998726e+00
3.335542249987e+00
3.403345554519e+00
3.467756324330e+00
3.528710353057e+00
3.586146880391e+00
3.640008652555e+00
3.690241978361e+00
3.736796784568e+00
3.779626663795e+00
3.818688922437e+00
3.853944622419e+00
3.885358619805e+00
3.912899600501e+00
3.936540110960e+00
3.956256585859e+00
3.972029371246e+00
3.983842744422e+00
3.991684929647e+00
3.995548109650e+00
3.995428433419e+00
3.991326020280e+00
3.983244959769e+00
3.971193307107e+00
3.955183075750e+00
3.935230224832e+00
3.911354644159e+00
3.883580133397e+00
3.851934378691e+00
3.816448925221e+00
3.777159146032e+00
3.734104205751e+00
3.687327022787e+00
3.636874225606e+00
3.582796107021e+00
3.525146572910e+00
3.463983089992e+00
3.399366627333e+00
3.331361596331e+00
3.260035785827e+00
3.185460294995e+00
3.107709462636e+00
3.026860792396e+00
2.942994876358e+00
2.856195313981e+00
2.766548628946e+00
2.674144183213e+00
2.579074087702e+00
2.481433110764e+00
2.381318582935e+00
2.278830300873e+00
2.174070427338e+00
2.067143389198e+00
1.958155773985e+00
1.847216223188e+00
1.734435323860e+00
1.619925498721e+00
1.503800893689e+00
1.386177264790e+00
1.267171861731e+00
1.146903311958e+00
1.025491502144e+00
9.030574582285e-01
7.797232254808e-01
6.556117463021e-01
5.308467379355e-01
4.055525690879e-01
2.798541359111e-01
1.538767375549e-01
2.774595126172e-02
-9.841249285436e-02
-2.244728370874e-01
-3.503094215391e-01
-4.757968092924e-01
-6.008099116625e-01
-7.252241125457e-01
-8.489153930626e-01
-9.717604547628e-01
-1.093636842800e+00
-1.214423068017e+00
-1.333998727692e+00
-1.452244626201e+00
-1.569042893147e+00
-1.684277101230e+00
-1.797832382427e+00
-1.909595542086e+00
-2.019455172082e+00
-2.127301761649e+00
-2.233027806994e+00
-2.336527917536e+00
-2.437698922551e+00
-2.536439971713e+00
-2.632652638135e+00
-2.726241014549e+00
-2.817111809949e+00
-2.905174442051e+00
-2.990341128002e+00
-3.072526971842e+00
-3.151650048586e+00
-3.227631486562e+00
-3.300395545682e+00
-3.369869693037e+00
-3.435984675002e+00
-3.498674586897e+00
-3.557876937885e+00
-3.613532713422e+00
-3.665586434920e+00
-3.713986213593e+00
-3.758683803605e+00
-3.799634649522e+00
-3.836797930153e+00
-3.870136600539e+00
-3.899617428118e+00
-3.925211025289e+00
-3.946891880002e+00
-3.964638380058e+00
-3.978432835564e+00
-3.988261495905e+00
-3.994114563468e+00
-3.995986203765e+00
-3.993874551360e+00
-3.987781710915e+00
-3.977713756032e+00
-3.963680722617e+00
-3.945696599117e+00
-3.923779312795e+00
-3.897950711002e+00
-3.868236540366e+00
-3.834666420736e+00
-3.797273815760e+00
-3.756095998926e+00
-3.711174017276e+00
-3.662552650470e+00
-3.610280365078e+00
-3.554409267367e+00
-3.494995051077e+00
-3.432096941601e+00
-3.365777637372e+00
-3.296103246825e+00
-3.223143223386e+00
-3.146970294998e+00
-3.067660392597e+00
-2.985292574513e+00
-2.899948946576e+00
-2.811714581406e+00
-2.720677433163e+00
-2.626928249858e+00
-2.530560482523e+00
-2.431670193222e+00
-2.330355958052e+00
-2.226718769225e+00
-2.120861934929e+00
-2.012890975652e+00
-1.902913519279e+00
-1.791039194093e+00
-1.677379518997e+00
-1.562047792614e+00
-1.445158980249e+00
-1.326829599569e+00
-1.207177603948e+00
-1.086322265304e+00
-9.643840551196e-01
-8.414845243068e-01
-7.177461819657e-01
-5.932923733279e-01
-4.682471569452e-01
-3.427351808018e-01
-2.168815581799e-01
-9.081174293233e-02
-9.787347857077e-16
</dep>
<dep tran.v(vout4) time>
0.000000000000e+00
6.314739232494e-04
1.262947783573e-03
2.525895063513e-03
5.051786098193e-03
1.010353996480e-02
2.020682207967e-02
4.041158139989e-02
8.080666198657e-02
1.438517341667e-01
2.067534115558e-01
2.694489923160e-01
3.318759799586e-01
3.939721458592e-01
4.556755910744e-01
5.169248081365e-01
5.776587424043e-01
6.378168528900e-01
6.973391725624e-01
7.561663681990e-01
8.142397993943e-01
8.715015772614e-01
9.278946218546e-01
9.833627193584e-01
1.037850577792e+00
1.091303882422e+00
1.143669349665e+00
1.194894780463e+00
1.244929112087e+00
1.293722469127e+00
1.341226213262e+00
1.387392991572e+00
1.432176784030e+00
1.475532948971e+00
1.517418268078e+00
1.557790988998e+00
1.596610867302e+00
1.633839206363e+00
1.669438896119e+00
1.703374450037e+00
1.735612040327e+00
1.766119531763e+00
1.794866513635e+00
1.821824330545e+00
1.846966110228e+00
1.870266790618e+00
1.891703145171e+00
1.911253805622e+00
1.928899283463e+00
1.944621989212e+00
1.958406250051e+00
1.970238325477e+00
1.980106421222e+00
1.988000700367e+00
1.993913293642e+00
1.997838307288e+00
1.999771828880e+00
1.999711930926e+00
1.997658673150e+00
1.993614102365e+00
1.987582250207e+00
1.979569129413e+00
1.969582727586e+00
1.957632999402e+00
1.943731856765e+00
1.927893156477e+00
1.910132687073e+00
1.890468152589e+00
1.868919154978e+00
1.845507174963e+00
1.820255549916e+00
1.793189451564e+00
1.764335859742e+00
1.733723536541e+00
1.701382996980e+00
1.667346479022e+00
1.631647910806e+00
1.594322877645e+00
1.555408586049e+00
1.514943826594e+00
1.472968935617e+00
1.429525754647e+00
1.384657588729e+00
1.338409163698e+00
1.290826580895e+00
1.241957271995e+00
1.191849950759e+00
1.140554565587e+00
1.088122248882e+00
1.034605266294e+00
9.800569648796e-01
9.245317197056e-01
8.680848795921e-01
8.107727121096e-01
7.526523473207e-01
6.937817210273e-01
6.342195167963e-01
5.740251076350e-01
5.132584968233e-01
4.519802578579e-01
3.902514743531e-01
3.281336790242e-01
2.656887923367e-01
2.029790608358e-01
1.400669950235e-01
7.701530714621e-02
1.388684860649e-02
-4.925545267361e-02
-1.123486549623e-01
-1.753298654730e-01
-2.381363030509e-01
-3.007053607871e-01
-3.629746683291e-01
-4.248821542278e-01
-4.863661076088e-01
-5.473652398214e-01
-6.078187455423e-01
-6.676663632097e-01
-7.268484354136e-01
-7.853059680201e-01
-8.429806892236e-01
-8.998151074047e-01
-9.557525688142e-01
-1.010737313627e+00
-1.064714531705e+00
-1.117630417401e+00
-1.169432222727e+00
-1.220068310737e+00
-1.269488205842e+00
-1.317642645445e+00
-1.364483627782e+00
-1.409964460880e+00
-1.454039808246e+00
-1.496665734565e+00
-1.537799749349e+00
-1.577400849317e+00
-1.615429559024e+00
-1.651847970556e+00
-1.686619781365e+00
-1.719710329897e+00
-1.751086630742e+00
-1.780717407411e+00
-1.808573123068e+00
-1.834626010619e+00
-1.858850099903e+00
-1.881221243704e+00
-1.901717142086e+00
-1.920317364100e+00
-1.937003368628e+00
-1.951758522773e+00
-1.964568118157e+00
-1.975419385941e+00
-1.984301509219e+00
-1.991205634200e+00
-1.996124878700e+00
-1.999054339016e+00
-1.999991094985e+00
-1.998934212897e+00
-1.995884746313e+00
-1.990845734894e+00
-1.983822201611e+00
-1.974821147858e+00
-1.963851545996e+00
-1.950924330857e+00
-1.936052388453e+00
-1.919250543579e+00
-1.900535544730e+00
-1.879926047521e+00
-1.857442595647e+00
-1.833107601502e+00
-1.806945322722e+00
-1.778981838375e+00
-1.749245023064e+00
-1.717764519213e+00
-1.684571707505e+00
-1.649699675036e+00
-1.613183183304e+00
-1.575058632647e+00
-1.535364026495e+00
-1.494138933602e+00
-1.451424447820e+00
-1.407263147994e+00
-1.361699055298e+00
-1.314777589054e+00
-1.266545521503e+00
-1.217050931707e+00
-1.166343157005e+00
-1.114472743997e+00
-1.061491398432e+00
-1.007451933256e+00
-9.524082163989e-01
-8.964151166438e-01
-8.395284492290e-01
-7.818049202033e-01
-7.233020696149e-01
-6.640782145842e-01
-6.041923907760e-01
-5.437042937847e-01
-4.826742195874e-01
-4.211630044156e-01
-3.592319640738e-01
-2.969428328506e-01
-2.343577020583e-01
-1.715389579913e-01
-1.085492198690e-01
-4.545127733763e-02
-4.898567602467e-16
</dep>
<dep tran.v(vout_1) time>
0.000000000000e+00
1.262946583552e-03
2.525893041138e-03
5.051785075011e-03
1.010356209235e-02
2.020705972154e-02
4.041360374504e-02
8.082308197845e-02
1.616131623523e-01
2.877031806274e-01
4.135064096045e-01
5.388974457164e-01
6.637512961752e-01
7.879435037612e-01
9.113502707332e-01
1.033848582359e+00
1.155316329503e+00
1.275632430159e+00
1.394676950411e+00
1.512331223988e+00
1.628477970255e+00
1.743001411553e+00
1.855787387933e+00
1.966723471938e+00
2.075699079840e+00
2.182605582173e+00
2.287336411886e+00
2.389787171036e+00
2.489855734282e+00
2.587442350807e+00
2.682449743967e+00
2.774783208384e+00
2.864350703545e+00
2.951062946813e+00
3.034833501210e+00
3.115578862140e+00
3.193218541332e+00
3.267675145064e+00
3.338874453329e+00
3.406745493179e+00
3.471220609383e+00
3.532235531136e+00
3.589729437605e+00
3.643645017408e+00
3.693928526482e+00
3.740529840812e+00
3.783402506961e+00
3.822503788746e+00
3.857794709154e+00
3.889240089105e+00
3.916808583192e+00
3.940472710528e+00
3.960208882112e+00
3.975997424452e+00
3.987822599243e+00
3.995672618970e+00
3.999539658311e+00
3.999419862521e+00
3.995313350926e+00
3.987224217621e+00
3.975160525297e+00
3.959134299541e+00
3.939161515911e+00
3.915262083290e+00
3.887459826074e+00
3.855782457162e+00
3.820261553861e+00
3.780932524125e+00
3.737834572094e+00
3.691010658746e+00
3.640507459291e+00
3.586375316605e+00
3.528668190818e+00
3.467443605536e+00
3.402762591140e+00
3.334689622978e+00
3.263292558258e+00
3.188642566674e+00
3.110814061249e+00
3.029884623247e+00
2.945934925228e+00
2.859048650134e+00
2.769312408054e+00
2.676815650542e+00
2.581650580163e+00
2.483912059921e+00
2.383697517682e+00
2.281106850016e+00
2.176242321380e+00
2.069208463246e+00
1.960111969616e+00
1.849061590328e+00
1.736168022966e+00
1.621543802612e+00
1.505303189275e+00
1.387562054442e+00
1.268437765073e+00
1.148049067240e+00
1.026515967096e+00
9.039596117509e-01
7.805021681997e-01
6.562667017861e-01
5.313770532666e-01
4.059577156877e-01
2.801337099081e-01
1.540304602604e-01
2.777366943883e-02
-9.851080683075e-02
-2.246970852211e-01
-3.506593802595e-01
-4.762721298321e-01
-6.014101201436e-01
-7.259486107214e-01
-8.497634586820e-01
-9.727312424511e-01
-1.094729384931e+00
-1.215636275418e+00
-1.335331391077e+00
-1.453695417091e+00
-1.570610365365e+00
-1.685959692346e+00
-1.799628415203e+00
-1.911503226031e+00
-2.021472605702e+00
-2.129426934058e+00
-2.235258599394e+00
-2.338862106553e+00
-2.440134181175e+00
-2.538973872666e+00
-2.635282655479e+00
-2.728964526439e+00
-2.819926101714e+00
-2.908076708438e+00
-2.993328475859e+00
-3.075596423238e+00
-3.154798543779e+00
-3.230855887174e+00
-3.303692637361e+00
-3.373236189480e+00
-3.439417220186e+00
-3.502169759129e+00
-3.561431253213e+00
-3.617142628995e+00
-3.669248351944e+00
-3.717696482083e+00
-3.762438724865e+00
-3.803430480650e+00
-3.840630887426e+00
-3.874002863187e+00
-3.903513142024e+00
-3.929132307065e+00
-3.950834820862e+00
-3.968599049840e+00
-3.982407285948e+00
-3.992245765054e+00
-3.998104679747e+00
-3.999978190055e+00
-3.997864427976e+00
-3.991765500745e+00
-3.981687487802e+00
-3.967640435556e+00
-3.949638346094e+00
-3.927699164138e+00
-3.901844759821e+00
-3.872100904817e+00
-3.838497248595e+00
-3.801067288383e+00
-3.759848334827e+00
-3.714881476481e+00
-3.666211536736e+00
-3.613887031446e+00
-3.557960118749e+00
-3.498486547614e+00
-3.435525603010e+00
-3.369140045717e+00
-3.299396050628e+00
-3.226363140158e+00
-3.150114115095e+00
-3.070724982303e+00
-2.988274878822e+00
-2.902845992590e+00
-2.814523481415e+00
-2.723395387176e+00
-2.629552548402e+00
-2.533088510041e+00
-2.434099429403e+00
-2.332683981280e+00
-2.228943258990e+00
-2.122980673914e+00
-2.014901851653e+00
-1.904814527952e+00
-1.792828440433e+00
-1.679055219400e+00
-1.563608276716e+00
-1.446602692653e+00
