<Qucs Dataset 25.1.2>
<indep time 237>
0.000000000000e+00
5.025130000000e-04
1.005026000000e-03
2.010052000000e-03
4.020104000000e-03
8.040208000000e-03
1.608041600000e-02
3.216083200000e-02
6.432166400000e-02
1.145729640000e-01
1.648242640000e-01
2.150755640000e-01
2.653268640000e-01
3.155781640000e-01
3.658294640000e-01
4.160807640000e-01
4.663320640000e-01
5.165833640000e-01
5.668346640000e-01
6.170859640000e-01
6.673372640000e-01
7.175885640000e-01
7.678398640000e-01
8.180911640000e-01
8.683424640000e-01
9.185937640000e-01
9.688450640000e-01
9.900000000000e-01
9.910000000000e-01
9.930000000000e-01
9.950000000000e-01
9.990000000000e-01
1.000000000000e+00
1.000800000000e+00
1.002400000000e+00
1.005600000000e+00
1.012000000000e+00
1.024800000000e+00
1.038816890941e+00
1.052387699142e+00
1.063280383696e+00
1.073925485202e+00
1.095215688215e+00
1.137796094239e+00
1.188047394239e+00
1.238298694239e+00
1.288549994239e+00
1.338801294239e+00
1.389052594239e+00
1.439303894239e+00
1.489555194239e+00
1.539806494239e+00
1.590057794239e+00
1.640309094239e+00
1.681512168844e+00
1.719577224888e+00
1.759667662381e+00
1.800264613671e+00
1.850515913671e+00
1.900767213671e+00
1.951018513671e+00
2.001269813671e+00
2.051521113671e+00
2.101772413671e+00
2.152023713671e+00
2.193415929850e+00
2.231723297021e+00
2.270603715316e+00
2.309852422034e+00
2.360103722034e+00
2.410355022034e+00
2.460606322034e+00
2.510857622034e+00
2.561108922034e+00
2.611360222034e+00
2.652496935890e+00
2.690477082529e+00
2.730967698710e+00
2.771998368193e+00
2.822249668193e+00
2.872500968193e+00
2.922752268193e+00
2.973003568193e+00
3.023254868193e+00
3.073506168193e+00
3.115042252567e+00
3.153534292853e+00
3.191449476566e+00
3.229577849998e+00
3.279829149998e+00
3.330080449998e+00
3.380331749998e+00
3.430583049998e+00
3.480834349998e+00
3.531085649998e+00
3.572477961364e+00
3.610785446807e+00
3.649661987969e+00
3.688906402511e+00
3.739157702511e+00
3.789409002511e+00
3.839660302511e+00
3.889911602511e+00
3.940162902511e+00
3.990414202511e+00
4.031947659783e+00
4.070436323433e+00
4.108369004039e+00
4.146518092050e+00
4.196769392050e+00
4.247020692050e+00
4.297271992050e+00
4.347523292050e+00
4.397774592050e+00
4.448025892050e+00
4.489489927887e+00
4.527889438007e+00
4.566291729783e+00
4.604990841998e+00
4.655242141998e+00
4.705493441998e+00
4.755744741998e+00
4.805996041998e+00
4.856247341998e+00
4.906498641998e+00
4.948017927412e+00
4.986488384698e+00
5.024517923260e+00
5.062781296107e+00
5.113032596107e+00
5.163283896107e+00
5.213535196107e+00
5.263786496107e+00
5.314037796107e+00
5.364289096107e+00
5.405776934037e+00
5.444207000707e+00
5.482449598957e+00
5.520962819106e+00
5.571214119106e+00
5.621465419106e+00
5.671716719106e+00
5.721968019106e+00
5.772219319106e+00
5.822470619106e+00
5.863981080348e+00
5.902440199934e+00
5.940529795581e+00
5.978863809148e+00
6.029115109148e+00
6.079366409148e+00
6.129617709148e+00
6.179869009148e+00
6.230120309148e+00
6.280371609148e+00
6.321868248742e+00
6.360309617049e+00
6.398492839851e+00
6.436936644635e+00
6.487187944635e+00
6.537439244635e+00
6.587690544635e+00
6.637941844635e+00
6.688193144635e+00
6.738444444635e+00
6.779950546928e+00
6.818404067998e+00
6.856523242599e+00
6.894891985849e+00
6.945143285849e+00
6.995394585849e+00
7.045645885849e+00
7.095897185849e+00
7.146148485849e+00
7.196399785849e+00
7.237899903757e+00
7.276345738863e+00
7.314505445015e+00
7.352921711531e+00
7.403173011531e+00
7.453424311531e+00
7.503675611531e+00
7.553926911531e+00
7.604178211531e+00
7.654429511531e+00
7.695933628799e+00
7.734384600364e+00
7.772517228535e+00
7.810901754604e+00
7.861153054604e+00
7.911404354604e+00
7.961655654604e+00
8.011906954604e+00
8.062158254604e+00
8.112409554604e+00
8.153911099760e+00
8.192358767799e+00
8.230508815799e+00
8.268913765067e+00
8.319165065067e+00
8.369416365067e+00
8.419667665067e+00
8.469918965067e+00
8.520170265067e+00
8.570421565067e+00
8.611924809330e+00
8.650374659479e+00
8.688513203112e+00
8.726904666104e+00
8.777155966104e+00
8.827407266104e+00
8.877658566104e+00
8.927909866104e+00
8.978161166104e+00
9.028412466104e+00
9.069914608641e+00
9.108363043869e+00
9.146509047915e+00
9.184909257263e+00
9.235160557263e+00
9.285411857263e+00
9.335663157263e+00
9.385914457263e+00
9.436165757263e+00
9.486417057263e+00
9.527919923402e+00
9.566369287933e+00
9.604510392389e+00
9.642904857901e+00
9.693156157901e+00
9.743407457901e+00
9.793658757901e+00
9.843910057901e+00
9.894161357901e+00
9.944412657901e+00
9.985915052994e+00
1.000000000000e+01
</indep>
<dep tran.v(baseleft) time>
2.766510757814e-01
2.766510757814e-01
2.766510757814e-01
2.766510757814e-01
2.766510757814e-01
2.766510757814e-01
2.766510757814e-01
2.766510757814e-01
2.766510757814e-01
2.766510757814e-01
2.766510757814e-01
2.766510757814e-01
2.766510757814e-01
2.766510757814e-01
2.766510757814e-01
2.766510757814e-01
2.766510757814e-01
2.766510757814e-01
2.766510757814e-01
2.766510757814e-01
2.766510757814e-01
2.766510757814e-01
2.766510757814e-01
2.766510757814e-01
2.766510757814e-01
2.766510757814e-01
2.766510757814e-01
2.766510757814e-01
2.766510757814e-01
2.766510757814e-01
3.149940891037e-01
3.667877720831e-01
3.797002886073e-01
3.900153754620e-01
4.106272340906e-01
4.517412625592e-01
5.335326346485e-01
6.954648431707e-01
8.909643211450e-01
8.905612928062e-01
8.902417132502e-01
8.899326451111e-01
8.893240391141e-01
8.881445623961e-01
8.868175645917e-01
8.855603105169e-01
8.843715386705e-01
8.832496936295e-01
8.821929507758e-01
8.811992635716e-01
8.802663978383e-01
8.793919671391e-01
8.785734680369e-01
8.778083148167e-01
-7.337189510288e+00
-6.535862274801e+00
-5.727749330437e+00
-4.945307308780e+00
-4.024360058298e+00
-3.153454118347e+00
-2.329874064576e+00
-1.551051667683e+00
-8.145578239939e-01
-1.180949707913e-01
5.405099694456e-01
8.897189239218e-01
8.886074690589e-01
8.875232645191e-01
8.864732543689e-01
8.851930199633e-01
8.839841461571e-01
8.828450611088e-01
8.817739260257e-01
8.807686243659e-01
8.798268226106e-01
-6.106158100897e+00
-5.357457977411e+00
-4.593305642121e+00
-3.853256574332e+00
-2.991626818521e+00
-2.176815745931e+00
-1.406283000960e+00
-6.776259171501e-01
1.142803454085e-02
6.630177835057e-01
8.897423352819e-01
8.886204280833e-01
8.875578740898e-01
8.865316425636e-01
8.852427795398e-01
8.840257589463e-01
8.828790316938e-01
8.818007792186e-01
8.807888953806e-01
8.798412407381e-01
-6.048174070143e+00
-5.295598584234e+00
-4.563850797875e+00
-3.856587141100e+00
-2.994772861575e+00
-2.179786563920e+00
-1.409087382287e+00
-6.802722576214e-01
8.931701358838e-03
6.606649673056e-01
8.897174963641e-01
8.885957630349e-01
8.875328403178e-01
8.865062289134e-01
8.852176684248e-01
8.840010075154e-01
8.828546935005e-01
8.817769036057e-01
8.807655270329e-01
8.798202007980e-01
-6.049010103253e+00
-5.294628244385e+00
-4.571661363058e+00
-3.873689013250e+00
-3.010944842500e+00
-2.195078941103e+00
-1.423547734060e+00
-6.939456004673e-01
-3.997229531120e-03
6.484436831588e-01
8.896996779762e-01
8.885788024201e-01
8.875136993823e-01
8.864846802367e-01
8.851970772570e-01
8.839813684139e-01
8.828359965814e-01
8.817591344519e-01
8.807486672620e-01
8.798065541246e-01
-6.054752807120e+00
-5.299542790742e+00
-4.579315301044e+00
-3.884304605647e+00
-3.020983507864e+00
-2.204571946494e+00
-1.432524655039e+00
-7.024344133751e-01
-1.202439939277e-02
6.408545956357e-01
8.896902547997e-01
8.885701748740e-01
8.875037287887e-01
8.864732118829e-01
8.851861922440e-01
8.839710580791e-01
8.828262498672e-01
8.817499377573e-01
8.807400048762e-01
8.797998470804e-01
-6.058342139114e+00
-5.302764560052e+00
-4.583498194494e+00
-3.889538977765e+00
-3.025933446448e+00
-2.209252876321e+00
-1.436951165440e+00
-7.066203038541e-01
-1.598272290416e-02
6.371120734683e-01
8.896857737112e-01
8.885661946767e-01
8.874990803683e-01
8.864678346743e-01
8.851811009235e-01
8.839662476925e-01
8.828217142205e-01
8.817456694726e-01
8.807359955866e-01
8.797967817342e-01
-6.060113473015e+00
-5.304375821313e+00
-4.585476332491e+00
-3.891921132781e+00
-3.028186163279e+00
-2.211383176116e+00
-1.438965688891e+00
-7.085253319743e-01
-1.778419670800e-02
6.354087722989e-01
8.896840321564e-01
8.885644328402e-01
8.874970212144e-01
8.864654379024e-01
8.851788339824e-01
8.839641081278e-01
8.828196991067e-01
8.817437753303e-01
8.807342184963e-01
8.797954261495e-01
-6.060919488332e+00
-5.305112820181e+00
-4.586360906511e+00
-3.892968788575e+00
-3.029176894407e+00
-2.212320070696e+00
-1.439851667672e+00
-7.093631574745e-01
-1.857648187046e-02
6.346596556852e-01
8.896832037450e-01
8.885636676347e-01
8.874961233356e-01
8.864643936224e-01
8.851778467285e-01
8.839631768129e-01
8.828188224122e-01
8.817429517023e-01
8.807334461888e-01
8.797948368739e-01
-6.061273889261e+00
-5.305437627567e+00
-4.586746836445e+00
-3.893422382518e+00
-3.029605842475e+00
-2.212725709976e+00
-1.440235262778e+00
-7.097259045028e-01
-1.891951214839e-02
6.343353143574e-01
8.896828470751e-01
8.885633382703e-01
8.874957365402e-01
8.864639434641e-01
8.851774212475e-01
8.839627755336e-01
8.828184447583e-01
8.817425969964e-01
8.807331136708e-01
8.797945830039e-01
-6.061427305658e+00
-5.780827752472e+00
</dep>
<dep tran.v(baseright) time>
8.487113932397e-01
8.487113932433e-01
8.487113932434e-01
8.487113932433e-01
8.487113932434e-01
8.487113932433e-01
8.487113932433e-01
8.487113932433e-01
8.487113932433e-01
8.487113932433e-01
8.487113932433e-01
8.487113932433e-01
8.487113932433e-01
8.487113932433e-01
8.487113932433e-01
8.487113932433e-01
8.487113932433e-01
8.487113932433e-01
8.487113932433e-01
8.487113932433e-01
8.487113932433e-01
8.487113932433e-01
8.487113932433e-01
8.487113932433e-01
8.487113932433e-01
8.487113932433e-01
8.487113932433e-01
8.487113932433e-01
8.487113932433e-01
8.487113932433e-01
8.731829779661e-01
8.731596956740e-01
8.731539161112e-01
8.731492747713e-01
8.731399976208e-01
8.731214802865e-01
8.730845125691e-01
8.729583102462e-01
-1.067717303873e+01
-1.033764241128e+01
-1.006879632946e+01
-9.809187573412e+00
-9.299075504924e+00
-8.314221738545e+00
-7.210272415495e+00
-6.166304356350e+00
-5.179062356480e+00
-4.245467740342e+00
-3.362608705719e+00
-2.527731221790e+00
-1.738230429874e+00
-9.916425270070e-01
-2.856371057865e-01
3.819900750603e-01
8.897504724026e-01
8.886526804159e-01
8.875418109160e-01
8.864639498157e-01
8.851942409785e-01
8.839951025324e-01
8.828649431442e-01
8.818019103201e-01
8.808038875716e-01
8.798685513421e-01
8.789936097056e-01
-6.581881287733e+00
-5.807037634822e+00
-5.053618428720e+00
-4.325376456340e+00
-3.438099113364e+00
-2.599033140533e+00
-1.805562583895e+00
-1.055213298954e+00
-3.456451684365e-01
3.253552084770e-01
8.894063528774e-01
8.883132281385e-01
8.871943069379e-01
8.861089976257e-01
8.848452435394e-01
8.836527242965e-01
8.825297935029e-01
8.814745367282e-01
8.804847719028e-01
8.795793979410e-01
-6.201710959342e+00
-5.439157058535e+00
-4.719205561970e+00
-4.025192003924e+00
-3.154217681065e+00
-2.330568556916e+00
-1.551676788639e+00
-8.151138144386e-01
-1.185826308701e-01
5.400892928008e-01
8.895924400176e-01
8.884809361445e-01
8.873969630294e-01
8.863474273969e-01
8.850679620540e-01
8.838601974152e-01
8.827225447352e-01
8.816531450937e-01
8.806498586523e-01
8.797296674310e-01
-6.105509753877e+00
-5.347047380100e+00
-4.630574510353e+00
-3.939870605085e+00
-3.073530717259e+00
-2.254264233082e+00
-1.479516994724e+00
-7.468733766202e-01
-5.404860950624e-02
6.011174168701e-01
8.896490882599e-01
8.885324486088e-01
8.874590031931e-01
8.864208032426e-01
8.851367873339e-01
8.839245913018e-01
8.827826437129e-01
8.817091027491e-01
8.807018419227e-01
8.797706036705e-01
-6.077081962802e+00
-5.320160428527e+00
-4.603009051514e+00
-3.911426672330e+00
-3.046631963446e+00
-2.228826751499e+00
-1.455461434508e+00
-7.241246936147e-01
-3.253583190586e-02
6.214602981546e-01
8.896692462602e-01
8.885508868910e-01
8.874810105847e-01
8.864467146320e-01
8.851611677162e-01
8.839474766975e-01
8.828040761156e-01
8.817291301251e-01
8.807205169850e-01
8.797849288664e-01
-6.067507249544e+00
-5.311204543363e+00
-4.593315405373e+00
-3.900887209412e+00
-3.036665090816e+00
-2.219401388240e+00
-1.446548186000e+00
-7.156957594799e-01
-2.456491905770e-02
6.289973685180e-01
8.896771357808e-01
8.885580607985e-01
8.874895148521e-01
8.864566809316e-01
8.851705639071e-01
8.839563151589e-01
8.828123714948e-01
8.817368993434e-01
8.807277787935e-01
8.797904955444e-01
-6.063950093149e+00
-5.307903801305e+00
-4.589605692995e+00
-3.896718142875e+00
-3.032722533936e+00
-2.215673048608e+00
-1.443022437937e+00
-7.123616075299e-01
-2.141196359891e-02
6.319786308196e-01
8.896803081548e-01
8.885609810559e-01
8.874929622597e-01
8.864607091319e-01
8.851743659921e-01
8.839598957978e-01
8.828157362627e-01
8.817400547303e-01
8.807307320292e-01
8.797927596487e-01
-6.062541432618e+00
-5.306603321316e+00
-4.588110930678e+00
-3.895006752925e+00
-3.031104128145e+00
-2.214142581549e+00
-1.441575137691e+00
-7.109929608242e-01
-2.011770165739e-02
6.332023974257e-01
8.896816118452e-01
8.885621983501e-01
8.874943960598e-01
8.864623817573e-01
8.851759456718e-01
8.839613843975e-01
8.828171360223e-01
8.817413682683e-01
8.807319622712e-01
8.797937021949e-01
-6.061962999586e+00
-5.306070673407e+00
-4.587491246741e+00
-3.894290313585e+00
-3.030426615351e+00
-2.213501883225e+00
-1.440969256267e+00
-7.104200069771e-01
-1.957588840128e-02
6.337146961724e-01
8.896821685452e-01
8.885627119426e-01
8.874950003357e-01
8.864630860507e-01
8.851766110292e-01
8.839620115889e-01
8.828177259749e-01
8.817419220684e-01
8.807324811346e-01
8.797940994064e-01
-6.061720794304e+00
-5.305847948417e+00
-4.587230519526e+00
-3.893987397781e+00
-3.030140158096e+00
-2.213230991541e+00
-1.440713085584e+00
-7.101777584927e-01
-1.934680657467e-02
6.339312984673e-01
8.896824047536e-01
8.892674818197e-01
</dep>
<dep tran.v(diodeleft) time>
1.792819433253e-02
1.792819433253e-02
1.792819433253e-02
1.792819433253e-02
1.792819433253e-02
1.792819433253e-02
1.792819433253e-02
1.792819433253e-02
1.792819433253e-02
1.792819433253e-02
1.792819433253e-02
1.792819433253e-02
1.792819433253e-02
1.792819433253e-02
1.792819433253e-02
1.792819433253e-02
1.792819433253e-02
1.792819433253e-02
1.792819433253e-02
1.792819433253e-02
1.792819433253e-02
1.792819433253e-02
1.792819433253e-02
1.792819433253e-02
1.792819433253e-02
1.792819433253e-02
1.792819433253e-02
1.792819433253e-02
1.792819433253e-02
1.792819433253e-02
4.328786773929e-02
4.326328813354e-02
4.325718690159e-02
4.325228741554e-02
4.324249501949e-02
4.322295642573e-02
4.318419530403e-02
4.319342849856e-02
3.290439859148e-01
6.686634101639e-01
9.335817296071e-01
1.186056300195e+00
1.672659268428e+00
2.576831820796e+00
3.534839005393e+00
4.386888724285e+00
5.144743199775e+00
5.818858495782e+00
6.418529551165e+00
6.952019132260e+00
7.426672456333e+00
7.849019090084e+00
8.224863534747e+00
8.559365771350e+00
3.119035363215e-02
3.160656682535e-02
3.203948023839e-02
3.247017256818e-02
3.299039677613e-02
3.349317286575e-02
3.397568729437e-02
3.443543727869e-02
3.487030690063e-02
3.527859546496e-02
3.565884392325e-02
6.334008723384e-01
1.539572917674e+00
2.380125357753e+00
3.154755646936e+00
4.048843024399e+00
4.844070857075e+00
5.551413041359e+00
6.180624861128e+00
6.740378267894e+00
7.238382211316e+00
3.091987877768e-02
3.133481328744e-02
3.177195972290e-02
3.220759901778e-02
3.272874920731e-02
3.323306678825e-02
3.371771668398e-02
3.418017094481e-02
3.461828345263e-02
3.501058410543e-02
5.194729271436e-01
1.439613197918e+00
2.268643380351e+00
3.031588306219e+00
3.939298402463e+00
4.746637013006e+00
5.464745916566e+00
6.103529638654e+00
6.671792794389e+00
7.177370041867e+00
3.077608815626e-02
3.116765318439e-02
3.161639580320e-02
3.203499304030e-02
3.255985692027e-02
3.306863278890e-02
3.355849087262e-02
3.402681607731e-02
3.447136586197e-02
3.487257352880e-02
5.214949489095e-01
1.441384258550e+00
2.270630850701e+00
3.033803500041e+00
3.941268721917e+00
4.748389698128e+00
5.466305179755e+00
6.104917000222e+00
6.673027381023e+00
7.178541444137e+00
3.073996430169e-02
3.113382342733e-02
3.157674033675e-02
3.199005896318e-02
3.251589497431e-02
3.302587186538e-02
3.351713685463e-02
3.398705169395e-02
3.443334741394e-02
3.484310608259e-02
5.327561376767e-01
1.451261900245e+00
2.281697441005e+00
3.046114009493e+00
3.952217709664e+00
4.758128315421e+00
5.474967792349e+00
6.112623051824e+00
6.679883050468e+00
7.184735789732e+00
3.072933014718e-02
3.112382538997e-02
3.156489273013e-02
3.197639850760e-02
3.250254860552e-02
3.301291222059e-02
3.350462950461e-02
3.397505472984e-02
3.442191038181e-02
3.483506754091e-02
5.397600401543e-01
1.457405664827e+00
2.288574526179e+00
3.053753844416e+00
3.959012584616e+00
4.764172029824e+00
5.480343729444e+00
6.117405334939e+00
6.684137571463e+00
7.188579641541e+00
3.072583792205e-02
3.112045727017e-02
3.156086628751e-02
3.197169256390e-02
3.249795683353e-02
3.300846050721e-02
3.350034126653e-02
3.397095066822e-02
3.441800809845e-02
3.483248636288e-02
5.432153939100e-01
1.460436782341e+00
2.291965721297e+00
3.057518335107e+00
3.962360724931e+00
4.767150038374e+00
5.482992692326e+00
6.119761775605e+00
6.686233957447e+00
7.190473060839e+00
3.072451210543e-02
3.111920537642e-02
3.155936042685e-02
3.196991691218e-02
3.249622584616e-02
3.300678417571e-02
3.349872863606e-02
3.396940972370e-02
3.441654561452e-02
3.483156021674e-02
5.447885117037e-01
1.461816532215e+00
2.293509020723e+00
3.059230901713e+00
3.963883882701e+00
4.768504813189e+00
5.484197775262e+00
6.120833782063e+00
6.687187657701e+00
7.191334136775e+00
3.072396975963e-02
3.111870947573e-02
3.155876173265e-02
3.196920732037e-02
3.249553448006e-02
3.300611508074e-02
3.349808547581e-02
3.396879572961e-02
3.441596352477e-02
3.483120197936e-02
5.454803606514e-01
1.462423409746e+00
2.294187762648e+00
3.059983969796e+00
3.964553661885e+00
4.769100549195e+00
5.484727687103e+00
6.121305176022e+00
6.687607028709e+00
7.191712690156e+00
3.072375412486e-02
3.111850574917e-02
3.155851532178e-02
3.196891442669e-02
3.249524919330e-02
3.300583908200e-02
3.349782028816e-02
3.396854269580e-02
3.441572378180e-02
3.483105690652e-02
5.457799177466e-01
1.462686175296e+00
2.294481629320e+00
3.060309992972e+00
3.964843627082e+00
4.769358459126e+00
5.484957099993e+00
6.121509254953e+00
6.687788585504e+00
7.191876553156e+00
3.072366383006e-02
3.085862617998e-02
</dep>
<dep tran.v(dioderight) time>
1.173503377298e+01
1.173503377298e+01
1.173503377298e+01
1.173503377298e+01
1.173503377299e+01
1.173503377299e+01
1.173503377301e+01
1.173503377304e+01
1.173503377309e+01
1.173503377318e+01
1.173503377327e+01
1.173503377336e+01
1.173503377345e+01
1.173503377354e+01
1.173503377362e+01
1.173503377371e+01
1.173503377380e+01
1.173503377389e+01
1.173503377398e+01
1.173503377407e+01
1.173503377416e+01
1.173503377425e+01
1.173503377433e+01
1.173503377442e+01
1.173503377451e+01
1.173503377460e+01
1.173503377469e+01
1.173503377473e+01
1.173503377473e+01
1.173503377473e+01
1.175950535941e+01
1.175948207661e+01
1.175947629677e+01
1.175947165503e+01
1.175946237662e+01
1.175944384912e+01
1.175940646780e+01
1.175886487546e+01
3.168870240569e-02
3.183742576131e-02
3.195832428821e-02
3.207508418461e-02
3.230733406195e-02
3.276604784271e-02
3.329469571263e-02
3.380632462158e-02
3.429797546981e-02
3.476698546762e-02
3.521105699648e-02
3.562829630553e-02
3.601724370624e-02
3.637688759035e-02
3.670666262490e-02
3.700643270666e-02
7.814200554438e-01
1.669523165847e+00
2.523463780591e+00
3.310552293135e+00
4.187408627325e+00
4.967317661849e+00
5.661040970509e+00
6.278145092090e+00
6.827134200380e+00
7.315568101108e+00
7.750175025473e+00
3.090767791314e-02
3.132706451203e-02
3.174799784784e-02
3.216642470561e-02
3.269046697756e-02
3.319813686761e-02
3.368654779106e-02
3.415310596922e-02
3.459559201392e-02
3.501219240005e-02
8.316312689667e-01
1.713578938277e+00
2.571688802767e+00
3.362402748955e+00
4.233527003445e+00
5.008340962613e+00
5.697535426330e+00
6.310614010362e+00
6.856024947805e+00
7.342137511193e+00
