<Qucs Dataset 25.1.2>
<indep frequency 200>
1.000000000000e+00
5.124623115578e+01
1.014924623116e+02
1.517386934673e+02
2.019849246231e+02
2.522311557789e+02
3.024773869347e+02
3.527236180905e+02
4.029698492462e+02
4.532160804020e+02
5.034623115578e+02
5.537085427136e+02
6.039547738693e+02
6.542010050251e+02
7.044472361809e+02
7.546934673367e+02
8.049396984925e+02
8.551859296482e+02
9.054321608040e+02
9.556783919598e+02
1.005924623116e+03
1.056170854271e+03
1.106417085427e+03
1.156663316583e+03
1.206909547739e+03
1.257155778894e+03
1.307402010050e+03
1.357648241206e+03
1.407894472362e+03
1.458140703518e+03
1.508386934673e+03
1.558633165829e+03
1.608879396985e+03
1.659125628141e+03
1.709371859296e+03
1.759618090452e+03
1.809864321608e+03
1.860110552764e+03
1.910356783920e+03
1.960603015075e+03
2.010849246231e+03
2.061095477387e+03
2.111341708543e+03
2.161587939698e+03
2.211834170854e+03
2.262080402010e+03
2.312326633166e+03
2.362572864322e+03
2.412819095477e+03
2.463065326633e+03
2.513311557789e+03
2.563557788945e+03
2.613804020100e+03
2.664050251256e+03
2.714296482412e+03
2.764542713568e+03
2.814788944724e+03
2.865035175879e+03
2.915281407035e+03
2.965527638191e+03
3.015773869347e+03
3.066020100503e+03
3.116266331658e+03
3.166512562814e+03
3.216758793970e+03
3.267005025126e+03
3.317251256281e+03
3.367497487437e+03
3.417743718593e+03
3.467989949749e+03
3.518236180905e+03
3.568482412060e+03
3.618728643216e+03
3.668974874372e+03
3.719221105528e+03
3.769467336683e+03
3.819713567839e+03
3.869959798995e+03
3.920206030151e+03
3.970452261307e+03
4.020698492462e+03
4.070944723618e+03
4.121190954774e+03
4.171437185930e+03
4.221683417085e+03
4.271929648241e+03
4.322175879397e+03
4.372422110553e+03
4.422668341709e+03
4.472914572864e+03
4.523160804020e+03
4.573407035176e+03
4.623653266332e+03
4.673899497487e+03
4.724145728643e+03
4.774391959799e+03
4.824638190955e+03
4.874884422111e+03
4.925130653266e+03
4.975376884422e+03
5.025623115578e+03
5.075869346734e+03
5.126115577889e+03
5.176361809045e+03
5.226608040201e+03
5.276854271357e+03
5.327100502513e+03
5.377346733668e+03
5.427592964824e+03
5.477839195980e+03
5.528085427136e+03
5.578331658291e+03
5.628577889447e+03
5.678824120603e+03
5.729070351759e+03
5.779316582915e+03
5.829562814070e+03
5.879809045226e+03
5.930055276382e+03
5.980301507538e+03
6.030547738693e+03
6.080793969849e+03
6.131040201005e+03
6.181286432161e+03
6.231532663317e+03
6.281778894472e+03
6.332025125628e+03
6.382271356784e+03
6.432517587940e+03
6.482763819095e+03
6.533010050251e+03
6.583256281407e+03
6.633502512563e+03
6.683748743719e+03
6.733994974874e+03
6.784241206030e+03
6.834487437186e+03
6.884733668342e+03
6.934979899498e+03
6.985226130653e+03
7.035472361809e+03
7.085718592965e+03
7.135964824121e+03
7.186211055276e+03
7.236457286432e+03
7.286703517588e+03
7.336949748744e+03
7.387195979900e+03
7.437442211055e+03
7.487688442211e+03
7.537934673367e+03
7.588180904523e+03
7.638427135678e+03
7.688673366834e+03
7.738919597990e+03
7.789165829146e+03
7.839412060302e+03
7.889658291457e+03
7.939904522613e+03
7.990150753769e+03
8.040396984925e+03
8.090643216080e+03
8.140889447236e+03
8.191135678392e+03
8.241381909548e+03
8.291628140704e+03
8.341874371859e+03
8.392120603015e+03
8.442366834171e+03
8.492613065327e+03
8.542859296482e+03
8.593105527638e+03
8.643351758794e+03
8.693597989950e+03
8.743844221106e+03
8.794090452261e+03
8.844336683417e+03
8.894582914573e+03
8.944829145729e+03
8.995075376884e+03
9.045321608040e+03
9.095567839196e+03
9.145814070352e+03
9.196060301508e+03
9.246306532663e+03
9.296552763819e+03
9.346798994975e+03
9.397045226131e+03
9.447291457286e+03
9.497537688442e+03
9.547783919598e+03
9.598030150754e+03
9.648276381910e+03
9.698522613065e+03
9.748768844221e+03
9.799015075377e+03
9.849261306533e+03
9.899507537688e+03
9.949753768844e+03
1.000000000000e+04
</indep>
<dep ac.v(vin) frequency>
1.499999999850e+01+j2.481767324980e-08
1.499999999850e+01+j4.842829054441e-10
1.499999999850e+01+j2.445272526130e-10
1.499999999850e+01+j1.635553394108e-10
1.499999999850e+01+j1.228689355121e-10
1.499999999850e+01+j9.839257707200e-11
1.499999999850e+01+j8.204803156331e-11
1.499999999850e+01+j7.036011096667e-11
1.499999999850e+01+j6.158692306135e-11
1.499999999850e+01+j5.475903151059e-11
1.499999999850e+01+j4.929400117260e-11
1.499999999850e+01+j4.482082326812e-11
1.499999999850e+01+j4.109193887936e-11
1.499999999850e+01+j3.793585324346e-11
1.499999999850e+01+j3.522999600380e-11
1.499999999850e+01+j3.288444083011e-11
1.499999999850e+01+j3.083171738749e-11
1.499999999850e+01+j2.902020681053e-11
1.499999999850e+01+j2.740975458757e-11
1.499999999850e+01+j2.596864563664e-11
1.499999999850e+01+j2.467150312171e-11
1.499999999850e+01+j2.349778271266e-11
1.499999999850e+01+j2.243066669905e-11
1.499999999850e+01+j2.145626341529e-11
1.499999999850e+01+j2.056299314851e-11
1.499999999850e+01+j1.974112756944e-11
1.499999999850e+01+j1.898243454784e-11
1.499999999850e+01+j1.827989929565e-11
1.499999999850e+01+j1.762750947813e-11
1.499999999850e+01+j1.702008087419e-11
1.499999999850e+01+j1.645312141738e-11
1.499999999850e+01+j1.592271583681e-11
1.499999999850e+01+j1.542544065571e-11
1.499999999850e+01+j1.495828461096e-11
1.499999999850e+01+j1.451859205776e-11
1.499999999850e+01+j1.410401092791e-11
1.499999999850e+01+j1.371244936176e-11
1.499999999850e+01+j1.334204188103e-11
1.499999999850e+01+j1.299111924806e-11
1.499999999850e+01+j1.265818352914e-11
1.499999999850e+01+j1.234188662727e-11
1.499999999850e+01+j1.204101076659e-11
1.499999999850e+01+j1.175445591556e-11
1.499999999850e+01+j1.148122287346e-11
1.499999999850e+01+j1.122040394624e-11
1.499999999850e+01+j1.097117188764e-11
1.499999999850e+01+j1.073277144242e-11
1.499999999850e+01+j1.050451110644e-11
1.499999999850e+01+j1.028575770563e-11
1.499999999850e+01+j1.007592934869e-11
1.499999999850e+01+j9.874491307092e-12
1.499999999850e+01+j9.680949076239e-12
1.499999999850e+01+j9.494848592258e-12
1.499999999850e+01+j9.315767558402e-12
1.499999999850e+01+j9.143316854511e-12
1.499999999850e+01+j8.977134790741e-12
1.499999999850e+01+j8.816886023361e-12
1.499999999850e+01+j8.662257434781e-12
1.499999999850e+01+j8.512959434603e-12
1.499999999850e+01+j8.368720647023e-12
1.499999999850e+01+j8.229288452934e-12
1.499999999850e+01+j8.094425954161e-12
1.499999999850e+01+j7.963912515563e-12
1.499999999850e+01+j7.837541271365e-12
1.499999999850e+01+j7.715117607277e-12
1.499999999850e+01+j7.596460027855e-12
1.499999999850e+01+j7.481396795475e-12
1.499999999850e+01+j7.369767339796e-12
1.499999999850e+01+j7.261419980933e-12
1.499999999850e+01+j7.156212363142e-12
1.499999999850e+01+j7.054009936933e-12
1.499999999850e+01+j6.954685525390e-12
1.499999999850e+01+j6.858119432594e-12
1.499999999850e+01+j6.764198250998e-12
1.499999999850e+01+j6.672814427747e-12
1.499999999850e+01+j6.583867348878e-12
1.499999999850e+01+j6.497260303558e-12
1.499999999850e+01+j6.412902001963e-12
1.499999999850e+01+j6.330706250023e-12
1.499999999850e+01+j6.250590973630e-12
1.499999999850e+01+j6.172478001810e-12
1.499999999850e+01+j6.096293283554e-12
1.499999999850e+01+j6.021966237300e-12
1.499999999850e+01+j5.949429859355e-12
1.499999999850e+01+j5.878620290209e-12
1.499999999850e+01+j5.809476164020e-12
1.499999999850e+01+j5.741939692813e-12
1.499999999850e+01+j5.675955690697e-12
1.499999999850e+01+j5.611470598084e-12
1.499999999850e+01+j5.548434216414e-12
1.499999999850e+01+j5.486798840791e-12
1.499999999850e+01+j5.426517525262e-12
1.499999999850e+01+j5.367546251217e-12
1.499999999850e+01+j5.309843168454e-12
1.499999999850e+01+j5.253367185709e-12
1.499999999850e+01+j5.198080355907e-12
1.499999999850e+01+j5.143945057233e-12
1.499999999850e+01+j5.090925511014e-12
1.499999999850e+01+j5.038987727513e-12
1.499999999850e+01+j4.988098963824e-12
1.499999999850e+01+j4.938227940714e-12
1.499999999850e+01+j4.889344246313e-12
1.499999999850e+01+j4.841419095052e-12
1.499999999850e+01+j4.794423972415e-12
1.499999999850e+01+j4.748332586499e-12
1.499999999850e+01+j4.703118862241e-12
1.499999999850e+01+j4.658758242463e-12
1.499999999850e+01+j4.615226495246e-12
1.499999999850e+01+j4.572500798133e-12
1.499999999850e+01+j4.530558870772e-12
1.499999999850e+01+j4.489379408588e-12
1.499999999850e+01+j4.448941757530e-12
1.499999999850e+01+j4.409226293540e-12
1.499999999850e+01+j4.370213284137e-12
1.499999999850e+01+j4.331884894196e-12
1.499999999850e+01+j4.294222800700e-12
1.499999999850e+01+j4.257209981675e-12
1.499999999850e+01+j4.220829794618e-12
1.499999999850e+01+j4.185066084916e-12
1.499999999850e+01+j4.149903294268e-12
1.499999999850e+01+j4.115326569104e-12
1.499999999850e+01+j4.081321110065e-12
1.499999999850e+01+j4.047873147783e-12
1.499999999850e+01+j4.014968967101e-12
1.499999999850e+01+j3.982595449172e-12
1.499999999850e+01+j3.950739691991e-12
1.499999999850e+01+j3.919389552492e-12
1.499999999850e+01+j3.888533104453e-12
1.499999999850e+01+j3.858158530070e-12
1.499999999850e+01+j3.828254987320e-12
1.499999999850e+01+j3.798811417342e-12
1.499999999850e+01+j3.769817303375e-12
1.499999999850e+01+j3.741262345498e-12
1.499999999850e+01+j3.713136731680e-12
1.499999999850e+01+j3.685430866734e-12
1.499999999850e+01+j3.658135372311e-12
1.499999999850e+01+j3.631241195321e-12
1.499999999850e+01+j3.604739662148e-12
1.499999999850e+01+j3.578622261805e-12
1.499999999850e+01+j3.552880483305e-12
1.499999999850e+01+j3.527506249341e-12
1.499999999850e+01+j3.502492187338e-12
1.499999999850e+01+j3.477830165782e-12
1.499999999850e+01+j3.453512974726e-12
1.499999999850e+01+j3.429533512646e-12
1.499999999850e+01+j3.405884840650e-12
1.499999999850e+01+j3.382560074053e-12
1.499999999850e+01+j3.359552653431e-12
1.499999999850e+01+j3.336855910942e-12
1.499999999850e+01+j3.314463829264e-12
1.499999999850e+01+j3.292370391074e-12
1.499999999850e+01+j3.270569579050e-12
1.499999999850e+01+j3.249055375871e-12
1.499999999850e+01+j3.227822468945e-12
1.499999999850e+01+j3.206865383052e-12
1.499999999850e+01+j3.186178642971e-12
1.499999999850e+01+j3.165756881900e-12
1.499999999850e+01+j3.145595437772e-12
1.499999999850e+01+j3.125689106414e-12
1.499999999850e+01+j3.106033117338e-12
1.499999999850e+01+j3.086622808474e-12
1.499999999850e+01+j3.067453626174e-12
1.499999999850e+01+j3.048521125208e-12
1.499999999850e+01+j3.029820806136e-12
1.499999999850e+01+j3.011348494782e-12
1.499999999850e+01+j2.993100125387e-12
1.499999999850e+01+j2.975071577982e-12
1.499999999850e+01+j2.957258841019e-12
1.499999999850e+01+j2.939658282422e-12
1.499999999850e+01+j2.922265782222e-12
1.499999999850e+01+j2.905078033601e-12
1.499999999850e+01+j2.888091350274e-12
1.499999999850e+01+j2.871302045952e-12
1.499999999850e+01+j2.854706813819e-12
1.499999999850e+01+j2.838302347059e-12
1.499999999850e+01+j2.822085230433e-12
1.499999999850e+01+j2.806052428177e-12
1.499999999850e+01+j2.790200958735e-12
1.499999999850e+01+j2.774527352659e-12
1.499999999850e+01+j2.759028953653e-12
1.499999999850e+01+j2.743702671743e-12
1.499999999850e+01+j2.728545688002e-12
1.499999999850e+01+j2.713555346135e-12
1.499999999850e+01+j2.698728773006e-12
1.499999999850e+01+j2.684063366530e-12
1.499999999850e+01+j2.669556524622e-12
1.499999999850e+01+j2.655205590986e-12
1.499999999850e+01+j2.641008126168e-12
1.499999999850e+01+j2.626961744922e-12
1.499999999850e+01+j2.613063953584e-12
1.499999999850e+01+j2.599312366909e-12
1.499999999850e+01+j2.585704870703e-12
1.499999999850e+01+j2.572239025510e-12
1.499999999850e+01+j2.558912717138e-12
1.499999999850e+01+j2.545723777180e-12
1.499999999850e+01+j2.532670199864e-12
1.499999999850e+01+j2.519749654154e-12
1.499999999850e+01+j2.506960351117e-12
1.499999999850e+01+j2.494300203664e-12
1.499999999850e+01+j2.481767287336e-12
</dep>
<dep ac.v(vout2) frequency>
0.000000000000e+00+j4.440892098501e-16
1.776356839400e-15+j1.387778780781e-17
0.000000000000e+00+j0.000000000000e+00
1.776356839400e-15+j6.938893903907e-18
-1.776356839400e-15-j1.734723475977e-18
3.552713678801e-15+j3.469446951954e-18
8.881784197001e-15+j6.938893903907e-18
3.552713678801e-15+j8.673617379884e-19
-1.776356839400e-15+j0.000000000000e+00
1.776356839400e-15+j1.734723475977e-18
-1.776356839400e-15-j4.336808689942e-18
1.776356839400e-15+j0.000000000000e+00
1.776356839400e-15-j8.673617379884e-19
5.329070518201e-15+j8.673617379884e-19
5.329070518201e-15+j1.301042606983e-18
0.000000000000e+00+j0.000000000000e+00
3.552713678801e-15+j4.336808689942e-19
-3.552713678801e-15-j1.301042606983e-18
5.329070518201e-15+j1.301042606983e-18
5.329070518201e-15+j8.673617379884e-19
-1.776356839400e-15-j4.336808689942e-19
1.776356839400e-15+j4.336808689942e-19
0.000000000000e+00-j4.336808689942e-19
0.000000000000e+00+j0.000000000000e+00
3.552713678801e-15+j0.000000000000e+00
3.552713678801e-15-j2.168404344971e-19
0.000000000000e+00+j2.168404344971e-19
0.000000000000e+00+j0.000000000000e+00
0.000000000000e+00+j4.336808689942e-19
0.000000000000e+00-j6.505213034913e-19
3.552713678801e-15+j4.336808689942e-19
0.000000000000e+00+j0.000000000000e+00
0.000000000000e+00+j4.336808689942e-19
-3.552713678801e-15+j0.000000000000e+00
3.552713678801e-15+j0.000000000000e+00
-1.776356839400e-15-j2.168404344971e-19
-1.776356839400e-15-j2.168404344971e-19
1.776356839400e-15+j0.000000000000e+00
-1.776356839400e-15+j0.000000000000e+00
0.000000000000e+00+j0.000000000000e+00
1.776356839400e-15+j4.336808689942e-19
0.000000000000e+00-j2.168404344971e-19
3.552713678801e-15+j0.000000000000e+00
1.776356839400e-15+j0.000000000000e+00
0.000000000000e+00+j0.000000000000e+00
-3.552713678801e-15-j2.168404344971e-19
1.776356839400e-15+j2.168404344971e-19
0.000000000000e+00+j0.000000000000e+00
1.776356839400e-15-j2.168404344971e-19
1.776356839400e-15-j4.336808689942e-19
0.000000000000e+00+j1.084202172486e-19
1.776356839400e-15-j1.084202172486e-19
3.552713678801e-15+j3.252606517457e-19
-1.776356839400e-15-j1.084202172486e-19
-1.776356839400e-15-j1.084202172486e-19
-1.776356839400e-15-j3.252606517457e-19
0.000000000000e+00+j1.084202172486e-19
0.000000000000e+00-j2.168404344971e-19
-3.552713678801e-15-j3.252606517457e-19
-1.776356839400e-15-j4.336808689942e-19
-1.776356839400e-15+j0.000000000000e+00
0.000000000000e+00-j2.168404344971e-19
-1.776356839400e-15-j3.252606517457e-19
3.552713678801e-15+j0.000000000000e+00
-1.776356839400e-15-j3.252606517457e-19
0.000000000000e+00+j2.168404344971e-19
0.000000000000e+00+j1.084202172486e-19
-1.776356839400e-15+j0.000000000000e+00
-1.776356839400e-15-j2.168404344971e-19
0.000000000000e+00+j0.000000000000e+00
-1.776356839400e-15-j1.084202172486e-19
-1.776356839400e-15-j1.084202172486e-19
1.776356839400e-15+j1.084202172486e-19
1.776356839400e-15+j2.168404344971e-19
-1.776356839400e-15-j3.252606517457e-19
0.000000000000e+00-j1.084202172486e-19
-1.776356839400e-15+j0.000000000000e+00
1.776356839400e-15+j0.000000000000e+00
-1.776356839400e-15-j1.084202172486e-19
-1.776356839400e-15-j1.084202172486e-19
-1.776356839400e-15+j0.000000000000e+00
-1.776356839400e-15+j0.000000000000e+00
0.000000000000e+00-j1.084202172486e-19
3.552713678801e-15+j0.000000000000e+00
1.776356839400e-15+j2.168404344971e-19
-1.776356839400e-15+j2.168404344971e-19
1.776356839400e-15+j1.084202172486e-19
0.000000000000e+00+j3.252606517457e-19
1.776356839400e-15+j1.084202172486e-19
-1.776356839400e-15-j2.168404344971e-19
1.776356839400e-15+j1.084202172486e-19
1.776356839400e-15+j1.084202172486e-19
-1.776356839400e-15-j1.084202172486e-19
1.776356839400e-15+j0.000000000000e+00
-3.552713678801e-15-j3.252606517457e-19
1.776356839400e-15+j0.000000000000e+00
0.000000000000e+00+j2.168404344971e-19
0.000000000000e+00+j1.084202172486e-19
-1.776356839400e-15-j5.421010862428e-20
0.000000000000e+00-j2.168404344971e-19
0.000000000000e+00-j1.626303258728e-19
1.776356839400e-15-j5.421010862428e-20
0.000000000000e+00+j1.626303258728e-19
0.000000000000e+00+j0.000000000000e+00
1.776356839400e-15+j5.421010862428e-20
-1.776356839400e-15-j5.421010862428e-20
0.000000000000e+00+j1.084202172486e-19
1.776356839400e-15+j5.421010862428e-20
1.776356839400e-15+j0.000000000000e+00
0.000000000000e+00+j0.000000000000e+00
1.776356839400e-15+j0.000000000000e+00
-3.552713678801e-15-j1.626303258728e-19
0.000000000000e+00+j1.084202172486e-19
-1.776356839400e-15-j1.626303258728e-19
0.000000000000e+00+j5.421010862428e-20
-3.552713678801e-15+j0.000000000000e+00
1.776356839400e-15+j5.421010862428e-20
0.000000000000e+00+j0.000000000000e+00
0.000000000000e+00+j5.421010862428e-20
0.000000000000e+00-j5.421010862428e-20
3.552713678801e-15+j1.626303258728e-19
1.776356839400e-15+j0.000000000000e+00
0.000000000000e+00-j5.421010862428e-20
0.000000000000e+00+j0.000000000000e+00
1.776356839400e-15+j1.084202172486e-19
1.776356839400e-15+j5.421010862428e-20
1.776356839400e-15+j0.000000000000e+00
-1.776356839400e-15+j5.421010862428e-20
1.776356839400e-15+j0.000000000000e+00
1.776356839400e-15+j0.000000000000e+00
-3.552713678801e-15+j0.000000000000e+00
0.000000000000e+00+j5.421010862428e-20
0.000000000000e+00+j0.000000000000e+00
0.000000000000e+00+j5.421010862428e-20
-1.776356839400e-15+j0.000000000000e+00
-1.776356839400e-15-j1.084202172486e-19
0.000000000000e+00-j1.626303258728e-19
0.000000000000e+00-j1.084202172486e-19
1.776356839400e-15+j1.084202172486e-19
-1.776356839400e-15+j5.421010862428e-20
-1.776356839400e-15-j1.084202172486e-19
7.105427357601e-15+j2.710505431214e-19
-3.552713678801e-15+j5.421010862428e-20
0.000000000000e+00+j0.000000000000e+00
1.776356839400e-15-j5.421010862428e-20
0.000000000000e+00+j0.000000000000e+00
0.000000000000e+00+j5.421010862428e-20
1.776356839400e-15+j1.626303258728e-19
1.776356839400e-15+j5.421010862428e-20
0.000000000000e+00-j1.084202172486e-19
-1.776356839400e-15+j0.000000000000e+00
1.776356839400e-15+j1.084202172486e-19
0.000000000000e+00-j1.084202172486e-19
-1.776356839400e-15-j5.421010862428e-20
0.000000000000e+00+j5.421010862428e-20
0.000000000000e+00+j1.084202172486e-19
-1.776356839400e-15-j1.084202172486e-19
0.000000000000e+00+j5.421010862428e-20
-1.776356839400e-15+j0.000000000000e+00
-3.552713678801e-15-j5.421010862428e-20
-3.552713678801e-15-j1.084202172486e-19
1.776356839400e-15+j0.000000000000e+00
1.776356839400e-15+j5.421010862428e-20
1.776356839400e-15+j5.421010862428e-20
0.000000000000e+00+j0.000000000000e+00
1.776356839400e-15+j5.421010862428e-20
1.776356839400e-15+j5.421010862428e-20
3.552713678801e-15+j0.000000000000e+00
0.000000000000e+00+j1.084202172486e-19
3.552713678801e-15-j5.421010862428e-20
0.000000000000e+00-j5.421010862428e-20
1.776356839400e-15+j1.084202172486e-19
1.776356839400e-15+j1.084202172486e-19
1.776356839400e-15+j5.421010862428e-20
1.776356839400e-15+j5.421010862428e-20
-1.776356839400e-15-j5.421010862428e-20
0.000000000000e+00-j5.421010862428e-20
-1.776356839400e-15+j1.084202172486e-19
3.552713678801e-15+j5.421010862428e-20
-1.776356839400e-15+j5.421010862428e-20
1.776356839400e-15+j0.000000000000e+00
-1.776356839400e-15-j1.084202172486e-19
-1.776356839400e-15-j1.084202172486e-19
-1.776356839400e-15-j1.084202172486e-19
1.776356839400e-15-j5.421010862428e-20
-1.776356839400e-15-j5.421010862428e-20
-3.552713678801e-15-j5.421010862428e-20
-1.776356839400e-15+j0.000000000000e+00
-1.776356839400e-15+j0.000000000000e+00
-1.776356839400e-15+j5.421010862428e-20
0.000000000000e+00-j5.421010862428e-20
1.776356839400e-15+j5.421010862428e-20
1.776356839400e-15+j0.000000000000e+00
0.000000000000e+00-j1.084202172486e-19
0.000000000000e+00-j5.421010862428e-20
-1.776356839400e-15+j2.710505431214e-20
-3.552713678801e-15-j8.131516293641e-20
-3.552713678801e-15-j2.710505431214e-20
-1.776356839400e-15-j8.131516293641e-20
-1.776356839400e-15-j5.421010862428e-20
</dep>
<dep ac.v(vout3) frequency>
3.414104121536e-08-j8.840326110990e-08
6.013208740462e-09-j1.899781236684e-09
6.004417047457e-09-j9.592774149521e-10
6.002754451934e-09-j6.416290655943e-10
6.002168089167e-09-j4.820168778966e-10
6.001895592450e-09-j3.859960486910e-10
6.001747198462e-09-j3.218762159689e-10
6.001657568188e-09-j2.760243438757e-10
6.001599322099e-09-j2.416069687976e-10
