<Qucs Dataset 25.1.2>
<indep frequency 200>
1.000000000000e+00
5.124623115578e+01
1.014924623116e+02
1.517386934673e+02
2.019849246231e+02
2.522311557789e+02
3.024773869347e+02
3.527236180905e+02
4.029698492462e+02
4.532160804020e+02
5.034623115578e+02
5.537085427136e+02
6.039547738693e+02
6.542010050251e+02
7.044472361809e+02
7.546934673367e+02
8.049396984925e+02
8.551859296482e+02
9.054321608040e+02
9.556783919598e+02
1.005924623116e+03
1.056170854271e+03
1.106417085427e+03
1.156663316583e+03
1.206909547739e+03
1.257155778894e+03
1.307402010050e+03
1.357648241206e+03
1.407894472362e+03
1.458140703518e+03
1.508386934673e+03
1.558633165829e+03
1.608879396985e+03
1.659125628141e+03
1.709371859296e+03
1.759618090452e+03
1.809864321608e+03
1.860110552764e+03
1.910356783920e+03
1.960603015075e+03
2.010849246231e+03
2.061095477387e+03
2.111341708543e+03
2.161587939698e+03
2.211834170854e+03
2.262080402010e+03
2.312326633166e+03
2.362572864322e+03
2.412819095477e+03
2.463065326633e+03
2.513311557789e+03
2.563557788945e+03
2.613804020100e+03
2.664050251256e+03
2.714296482412e+03
2.764542713568e+03
2.814788944724e+03
2.865035175879e+03
2.915281407035e+03
2.965527638191e+03
3.015773869347e+03
3.066020100503e+03
3.116266331658e+03
3.166512562814e+03
3.216758793970e+03
3.267005025126e+03
3.317251256281e+03
3.367497487437e+03
3.417743718593e+03
3.467989949749e+03
3.518236180905e+03
3.568482412060e+03
3.618728643216e+03
3.668974874372e+03
3.719221105528e+03
3.769467336683e+03
3.819713567839e+03
3.869959798995e+03
3.920206030151e+03
3.970452261307e+03
4.020698492462e+03
4.070944723618e+03
4.121190954774e+03
4.171437185930e+03
4.221683417085e+03
4.271929648241e+03
4.322175879397e+03
4.372422110553e+03
4.422668341709e+03
4.472914572864e+03
4.523160804020e+03
4.573407035176e+03
4.623653266332e+03
4.673899497487e+03
4.724145728643e+03
4.774391959799e+03
4.824638190955e+03
4.874884422111e+03
4.925130653266e+03
4.975376884422e+03
5.025623115578e+03
5.075869346734e+03
5.126115577889e+03
5.176361809045e+03
5.226608040201e+03
5.276854271357e+03
5.327100502513e+03
5.377346733668e+03
5.427592964824e+03
5.477839195980e+03
5.528085427136e+03
5.578331658291e+03
5.628577889447e+03
5.678824120603e+03
5.729070351759e+03
5.779316582915e+03
5.829562814070e+03
5.879809045226e+03
5.930055276382e+03
5.980301507538e+03
6.030547738693e+03
6.080793969849e+03
6.131040201005e+03
6.181286432161e+03
6.231532663317e+03
6.281778894472e+03
6.332025125628e+03
6.382271356784e+03
6.432517587940e+03
6.482763819095e+03
6.533010050251e+03
6.583256281407e+03
6.633502512563e+03
6.683748743719e+03
6.733994974874e+03
6.784241206030e+03
6.834487437186e+03
6.884733668342e+03
6.934979899498e+03
6.985226130653e+03
7.035472361809e+03
7.085718592965e+03
7.135964824121e+03
7.186211055276e+03
7.236457286432e+03
7.286703517588e+03
7.336949748744e+03
7.387195979900e+03
7.437442211055e+03
7.487688442211e+03
7.537934673367e+03
7.588180904523e+03
7.638427135678e+03
7.688673366834e+03
7.738919597990e+03
7.789165829146e+03
7.839412060302e+03
7.889658291457e+03
7.939904522613e+03
7.990150753769e+03
8.040396984925e+03
8.090643216080e+03
8.140889447236e+03
8.191135678392e+03
8.241381909548e+03
8.291628140704e+03
8.341874371859e+03
8.392120603015e+03
8.442366834171e+03
8.492613065327e+03
8.542859296482e+03
8.593105527638e+03
8.643351758794e+03
8.693597989950e+03
8.743844221106e+03
8.794090452261e+03
8.844336683417e+03
8.894582914573e+03
8.944829145729e+03
8.995075376884e+03
9.045321608040e+03
9.095567839196e+03
9.145814070352e+03
9.196060301508e+03
9.246306532663e+03
9.296552763819e+03
9.346798994975e+03
9.397045226131e+03
9.447291457286e+03
9.497537688442e+03
9.547783919598e+03
9.598030150754e+03
9.648276381910e+03
9.698522613065e+03
9.748768844221e+03
9.799015075377e+03
9.849261306533e+03
9.899507537688e+03
9.949753768844e+03
1.000000000000e+04
</indep>
<dep ac.v(vin) frequency>
1.000000000000e+02+j0.000000000000e+00
1.000000000000e+02+j0.000000000000e+00
1.000000000000e+02+j0.000000000000e+00
1.000000000000e+02+j0.000000000000e+00
1.000000000000e+02+j0.000000000000e+00
1.000000000000e+02+j0.000000000000e+00
1.000000000000e+02+j0.000000000000e+00
1.000000000000e+02+j0.000000000000e+00
1.000000000000e+02+j0.000000000000e+00
1.000000000000e+02+j0.000000000000e+00
1.000000000000e+02+j0.000000000000e+00
1.000000000000e+02+j0.000000000000e+00
1.000000000000e+02+j0.000000000000e+00
1.000000000000e+02+j0.000000000000e+00
1.000000000000e+02+j0.000000000000e+00
1.000000000000e+02+j0.000000000000e+00
1.000000000000e+02+j0.000000000000e+00
1.000000000000e+02+j0.000000000000e+00
1.000000000000e+02+j0.000000000000e+00
1.000000000000e+02+j0.000000000000e+00
1.000000000000e+02+j0.000000000000e+00
1.000000000000e+02+j0.000000000000e+00
1.000000000000e+02+j0.000000000000e+00
1.000000000000e+02+j0.000000000000e+00
1.000000000000e+02+j0.000000000000e+00
1.000000000000e+02+j0.000000000000e+00
1.000000000000e+02+j0.000000000000e+00
1.000000000000e+02+j0.000000000000e+00
1.000000000000e+02+j0.000000000000e+00
1.000000000000e+02+j0.000000000000e+00
1.000000000000e+02+j0.000000000000e+00
1.000000000000e+02+j0.000000000000e+00
1.000000000000e+02+j0.000000000000e+00
1.000000000000e+02+j0.000000000000e+00
1.000000000000e+02+j0.000000000000e+00
1.000000000000e+02+j0.000000000000e+00
1.000000000000e+02+j0.000000000000e+00
1.000000000000e+02+j0.000000000000e+00
1.000000000000e+02+j0.000000000000e+00
1.000000000000e+02+j0.000000000000e+00
1.000000000000e+02+j0.000000000000e+00
1.000000000000e+02+j0.000000000000e+00
1.000000000000e+02+j0.000000000000e+00
1.000000000000e+02+j0.000000000000e+00
1.000000000000e+02+j0.000000000000e+00
1.000000000000e+02+j0.000000000000e+00
1.000000000000e+02+j0.000000000000e+00
1.000000000000e+02+j0.000000000000e+00
1.000000000000e+02+j0.000000000000e+00
1.000000000000e+02+j0.000000000000e+00
1.000000000000e+02+j0.000000000000e+00
1.000000000000e+02+j0.000000000000e+00
1.000000000000e+02+j0.000000000000e+00
1.000000000000e+02+j0.000000000000e+00
1.000000000000e+02+j0.000000000000e+00
1.000000000000e+02+j0.000000000000e+00
1.000000000000e+02+j0.000000000000e+00
1.000000000000e+02+j0.000000000000e+00
1.000000000000e+02+j0.000000000000e+00
1.000000000000e+02+j0.000000000000e+00
1.000000000000e+02+j0.000000000000e+00
1.000000000000e+02+j0.000000000000e+00
1.000000000000e+02+j0.000000000000e+00
1.000000000000e+02+j0.000000000000e+00
1.000000000000e+02+j0.000000000000e+00
1.000000000000e+02+j0.000000000000e+00
1.000000000000e+02+j0.000000000000e+00
1.000000000000e+02+j0.000000000000e+00
1.000000000000e+02+j0.000000000000e+00
1.000000000000e+02+j0.000000000000e+00
1.000000000000e+02+j0.000000000000e+00
1.000000000000e+02+j0.000000000000e+00
1.000000000000e+02+j0.000000000000e+00
1.000000000000e+02+j0.000000000000e+00
1.000000000000e+02+j0.000000000000e+00
1.000000000000e+02+j0.000000000000e+00
1.000000000000e+02+j0.000000000000e+00
1.000000000000e+02+j0.000000000000e+00
1.000000000000e+02+j0.000000000000e+00
1.000000000000e+02+j0.000000000000e+00
1.000000000000e+02+j0.000000000000e+00
1.000000000000e+02+j0.000000000000e+00
1.000000000000e+02+j0.000000000000e+00
1.000000000000e+02+j0.000000000000e+00
1.000000000000e+02+j0.000000000000e+00
1.000000000000e+02+j0.000000000000e+00
1.000000000000e+02+j0.000000000000e+00
1.000000000000e+02+j0.000000000000e+00
1.000000000000e+02+j0.000000000000e+00
1.000000000000e+02+j0.000000000000e+00
1.000000000000e+02+j0.000000000000e+00
1.000000000000e+02+j0.000000000000e+00
1.000000000000e+02+j0.000000000000e+00
1.000000000000e+02+j0.000000000000e+00
1.000000000000e+02+j0.000000000000e+00
1.000000000000e+02+j0.000000000000e+00
1.000000000000e+02+j0.000000000000e+00
1.000000000000e+02+j0.000000000000e+00
1.000000000000e+02+j0.000000000000e+00
1.000000000000e+02+j0.000000000000e+00
1.000000000000e+02+j0.000000000000e+00
1.000000000000e+02+j0.000000000000e+00
1.000000000000e+02+j0.000000000000e+00
1.000000000000e+02+j0.000000000000e+00
1.000000000000e+02+j0.000000000000e+00
1.000000000000e+02+j0.000000000000e+00
1.000000000000e+02+j0.000000000000e+00
1.000000000000e+02+j0.000000000000e+00
1.000000000000e+02+j0.000000000000e+00
1.000000000000e+02+j0.000000000000e+00
1.000000000000e+02+j0.000000000000e+00
1.000000000000e+02+j0.000000000000e+00
1.000000000000e+02+j0.000000000000e+00
1.000000000000e+02+j0.000000000000e+00
1.000000000000e+02+j0.000000000000e+00
1.000000000000e+02+j0.000000000000e+00
1.000000000000e+02+j0.000000000000e+00
1.000000000000e+02+j0.000000000000e+00
1.000000000000e+02+j0.000000000000e+00
1.000000000000e+02+j0.000000000000e+00
1.000000000000e+02+j0.000000000000e+00
1.000000000000e+02+j0.000000000000e+00
1.000000000000e+02+j0.000000000000e+00
1.000000000000e+02+j0.000000000000e+00
1.000000000000e+02+j0.000000000000e+00
1.000000000000e+02+j0.000000000000e+00
1.000000000000e+02+j0.000000000000e+00
1.000000000000e+02+j0.000000000000e+00
1.000000000000e+02+j0.000000000000e+00
1.000000000000e+02+j0.000000000000e+00
1.000000000000e+02+j0.000000000000e+00
1.000000000000e+02+j0.000000000000e+00
1.000000000000e+02+j0.000000000000e+00
1.000000000000e+02+j0.000000000000e+00
1.000000000000e+02+j0.000000000000e+00
1.000000000000e+02+j0.000000000000e+00
1.000000000000e+02+j0.000000000000e+00
1.000000000000e+02+j0.000000000000e+00
1.000000000000e+02+j0.000000000000e+00
1.000000000000e+02+j0.000000000000e+00
1.000000000000e+02+j0.000000000000e+00
1.000000000000e+02+j0.000000000000e+00
1.000000000000e+02+j0.000000000000e+00
1.000000000000e+02+j0.000000000000e+00
1.000000000000e+02+j0.000000000000e+00
1.000000000000e+02+j0.000000000000e+00
1.000000000000e+02+j0.000000000000e+00
1.000000000000e+02+j0.000000000000e+00
1.000000000000e+02+j0.000000000000e+00
1.000000000000e+02+j0.000000000000e+00
1.000000000000e+02+j0.000000000000e+00
1.000000000000e+02+j0.000000000000e+00
1.000000000000e+02+j0.000000000000e+00
1.000000000000e+02+j0.000000000000e+00
1.000000000000e+02+j0.000000000000e+00
1.000000000000e+02+j0.000000000000e+00
1.000000000000e+02+j0.000000000000e+00
1.000000000000e+02+j0.000000000000e+00
1.000000000000e+02+j0.000000000000e+00
1.000000000000e+02+j0.000000000000e+00
1.000000000000e+02+j0.000000000000e+00
1.000000000000e+02+j0.000000000000e+00
1.000000000000e+02+j0.000000000000e+00
1.000000000000e+02+j0.000000000000e+00
1.000000000000e+02+j0.000000000000e+00
1.000000000000e+02+j0.000000000000e+00
1.000000000000e+02+j0.000000000000e+00
1.000000000000e+02+j0.000000000000e+00
1.000000000000e+02+j0.000000000000e+00
1.000000000000e+02+j0.000000000000e+00
1.000000000000e+02+j0.000000000000e+00
1.000000000000e+02+j0.000000000000e+00
1.000000000000e+02+j0.000000000000e+00
1.000000000000e+02+j0.000000000000e+00
1.000000000000e+02+j0.000000000000e+00
1.000000000000e+02+j0.000000000000e+00
1.000000000000e+02+j0.000000000000e+00
1.000000000000e+02+j0.000000000000e+00
1.000000000000e+02+j0.000000000000e+00
1.000000000000e+02+j0.000000000000e+00
1.000000000000e+02+j0.000000000000e+00
1.000000000000e+02+j0.000000000000e+00
1.000000000000e+02+j0.000000000000e+00
1.000000000000e+02+j0.000000000000e+00
1.000000000000e+02+j0.000000000000e+00
1.000000000000e+02+j0.000000000000e+00
1.000000000000e+02+j0.000000000000e+00
1.000000000000e+02+j0.000000000000e+00
1.000000000000e+02+j0.000000000000e+00
1.000000000000e+02+j0.000000000000e+00
1.000000000000e+02+j0.000000000000e+00
1.000000000000e+02+j0.000000000000e+00
1.000000000000e+02+j0.000000000000e+00
1.000000000000e+02+j0.000000000000e+00
1.000000000000e+02+j0.000000000000e+00
1.000000000000e+02+j0.000000000000e+00
1.000000000000e+02+j0.000000000000e+00
1.000000000000e+02+j0.000000000000e+00
1.000000000000e+02+j0.000000000000e+00
1.000000000000e+02+j0.000000000000e+00
</dep>
<dep ac.v(vin_biased) frequency>
1.000000000000e+02+j0.000000000000e+00
1.000000000000e+02+j0.000000000000e+00
1.000000000000e+02+j0.000000000000e+00
1.000000000000e+02+j0.000000000000e+00
1.000000000000e+02+j0.000000000000e+00
1.000000000000e+02+j0.000000000000e+00
1.000000000000e+02+j0.000000000000e+00
1.000000000000e+02+j0.000000000000e+00
1.000000000000e+02+j0.000000000000e+00
1.000000000000e+02+j0.000000000000e+00
1.000000000000e+02+j0.000000000000e+00
1.000000000000e+02+j0.000000000000e+00
1.000000000000e+02+j0.000000000000e+00
1.000000000000e+02+j0.000000000000e+00
1.000000000000e+02+j0.000000000000e+00
1.000000000000e+02+j0.000000000000e+00
1.000000000000e+02+j0.000000000000e+00
1.000000000000e+02+j0.000000000000e+00
1.000000000000e+02+j0.000000000000e+00
1.000000000000e+02+j0.000000000000e+00
1.000000000000e+02+j0.000000000000e+00
1.000000000000e+02+j0.000000000000e+00
1.000000000000e+02+j0.000000000000e+00
1.000000000000e+02+j0.000000000000e+00
1.000000000000e+02+j0.000000000000e+00
1.000000000000e+02+j0.000000000000e+00
1.000000000000e+02+j0.000000000000e+00
1.000000000000e+02+j0.000000000000e+00
1.000000000000e+02+j0.000000000000e+00
1.000000000000e+02+j0.000000000000e+00
1.000000000000e+02+j0.000000000000e+00
1.000000000000e+02+j0.000000000000e+00
1.000000000000e+02+j0.000000000000e+00
1.000000000000e+02+j0.000000000000e+00
1.000000000000e+02+j0.000000000000e+00
1.000000000000e+02+j0.000000000000e+00
1.000000000000e+02+j0.000000000000e+00
1.000000000000e+02+j0.000000000000e+00
1.000000000000e+02+j0.000000000000e+00
1.000000000000e+02+j0.000000000000e+00
1.000000000000e+02+j0.000000000000e+00
1.000000000000e+02+j0.000000000000e+00
1.000000000000e+02+j0.000000000000e+00
1.000000000000e+02+j0.000000000000e+00
1.000000000000e+02+j0.000000000000e+00
1.000000000000e+02+j0.000000000000e+00
1.000000000000e+02+j0.000000000000e+00
1.000000000000e+02+j0.000000000000e+00
1.000000000000e+02+j0.000000000000e+00
1.000000000000e+02+j0.000000000000e+00
1.000000000000e+02+j0.000000000000e+00
1.000000000000e+02+j0.000000000000e+00
1.000000000000e+02+j0.000000000000e+00
1.000000000000e+02+j0.000000000000e+00
1.000000000000e+02+j0.000000000000e+00
1.000000000000e+02+j0.000000000000e+00
1.000000000000e+02+j0.000000000000e+00
1.000000000000e+02+j0.000000000000e+00
1.000000000000e+02+j0.000000000000e+00
1.000000000000e+02+j0.000000000000e+00
1.000000000000e+02+j0.000000000000e+00
1.000000000000e+02+j0.000000000000e+00
1.000000000000e+02+j0.000000000000e+00
1.000000000000e+02+j0.000000000000e+00
1.000000000000e+02+j0.000000000000e+00
1.000000000000e+02+j0.000000000000e+00
1.000000000000e+02+j0.000000000000e+00
1.000000000000e+02+j0.000000000000e+00
1.000000000000e+02+j0.000000000000e+00
1.000000000000e+02+j0.000000000000e+00
1.000000000000e+02+j0.000000000000e+00
1.000000000000e+02+j0.000000000000e+00
1.000000000000e+02+j0.000000000000e+00
1.000000000000e+02+j0.000000000000e+00
1.000000000000e+02+j0.000000000000e+00
1.000000000000e+02+j0.000000000000e+00
1.000000000000e+02+j0.000000000000e+00
1.000000000000e+02+j0.000000000000e+00
1.000000000000e+02+j0.000000000000e+00
1.000000000000e+02+j0.000000000000e+00
1.000000000000e+02+j0.000000000000e+00
1.000000000000e+02+j0.000000000000e+00
1.000000000000e+02+j0.000000000000e+00
1.000000000000e+02+j0.000000000000e+00
1.000000000000e+02+j0.000000000000e+00
1.000000000000e+02+j0.000000000000e+00
1.000000000000e+02+j0.000000000000e+00
1.000000000000e+02+j0.000000000000e+00
1.000000000000e+02+j0.000000000000e+00
1.000000000000e+02+j0.000000000000e+00
1.000000000000e+02+j0.000000000000e+00
1.000000000000e+02+j0.000000000000e+00
1.000000000000e+02+j0.000000000000e+00
1.000000000000e+02+j0.000000000000e+00
1.000000000000e+02+j0.000000000000e+00
1.000000000000e+02+j0.000000000000e+00
1.000000000000e+02+j0.000000000000e+00
1.000000000000e+02+j0.000000000000e+00
1.000000000000e+02+j0.000000000000e+00
1.000000000000e+02+j0.000000000000e+00
1.000000000000e+02+j0.000000000000e+00
1.000000000000e+02+j0.000000000000e+00
1.000000000000e+02+j0.000000000000e+00
1.000000000000e+02+j0.000000000000e+00
1.000000000000e+02+j0.000000000000e+00
1.000000000000e+02+j0.000000000000e+00
1.000000000000e+02+j0.000000000000e+00
1.000000000000e+02+j0.000000000000e+00
1.000000000000e+02+j0.000000000000e+00
1.000000000000e+02+j0.000000000000e+00
1.000000000000e+02+j0.000000000000e+00
1.000000000000e+02+j0.000000000000e+00
1.000000000000e+02+j0.000000000000e+00
1.000000000000e+02+j0.000000000000e+00
1.000000000000e+02+j0.000000000000e+00
1.000000000000e+02+j0.000000000000e+00
1.000000000000e+02+j0.000000000000e+00
1.000000000000e+02+j0.000000000000e+00
1.000000000000e+02+j0.000000000000e+00
1.000000000000e+02+j0.000000000000e+00
1.000000000000e+02+j0.000000000000e+00
1.000000000000e+02+j0.000000000000e+00
1.000000000000e+02+j0.000000000000e+00
1.000000000000e+02+j0.000000000000e+00
1.000000000000e+02+j0.000000000000e+00
1.000000000000e+02+j0.000000000000e+00
1.000000000000e+02+j0.000000000000e+00
1.000000000000e+02+j0.000000000000e+00
1.000000000000e+02+j0.000000000000e+00
1.000000000000e+02+j0.000000000000e+00
1.000000000000e+02+j0.000000000000e+00
1.000000000000e+02+j0.000000000000e+00
1.000000000000e+02+j0.000000000000e+00
1.000000000000e+02+j0.000000000000e+00
1.000000000000e+02+j0.000000000000e+00
1.000000000000e+02+j0.000000000000e+00
1.000000000000e+02+j0.000000000000e+00
1.000000000000e+02+j0.000000000000e+00
1.000000000000e+02+j0.000000000000e+00
1.000000000000e+02+j0.000000000000e+00
1.000000000000e+02+j0.000000000000e+00
1.000000000000e+02+j0.000000000000e+00
1.000000000000e+02+j0.000000000000e+00
1.000000000000e+02+j0.000000000000e+00
1.000000000000e+02+j0.000000000000e+00
1.000000000000e+02+j0.000000000000e+00
1.000000000000e+02+j0.000000000000e+00
1.000000000000e+02+j0.000000000000e+00
1.000000000000e+02+j0.000000000000e+00
1.000000000000e+02+j0.000000000000e+00
1.000000000000e+02+j0.000000000000e+00
1.000000000000e+02+j0.000000000000e+00
1.000000000000e+02+j0.000000000000e+00
1.000000000000e+02+j0.000000000000e+00
1.000000000000e+02+j0.000000000000e+00
1.000000000000e+02+j0.000000000000e+00
1.000000000000e+02+j0.000000000000e+00
1.000000000000e+02+j0.000000000000e+00
1.000000000000e+02+j0.000000000000e+00
1.000000000000e+02+j0.000000000000e+00
1.000000000000e+02+j0.000000000000e+00
1.000000000000e+02+j0.000000000000e+00
1.000000000000e+02+j0.000000000000e+00
1.000000000000e+02+j0.000000000000e+00
1.000000000000e+02+j0.000000000000e+00
1.000000000000e+02+j0.000000000000e+00
1.000000000000e+02+j0.000000000000e+00
1.000000000000e+02+j0.000000000000e+00
1.000000000000e+02+j0.000000000000e+00
1.000000000000e+02+j0.000000000000e+00
1.000000000000e+02+j0.000000000000e+00
1.000000000000e+02+j0.000000000000e+00
1.000000000000e+02+j0.000000000000e+00
1.000000000000e+02+j0.000000000000e+00
1.000000000000e+02+j0.000000000000e+00
1.000000000000e+02+j0.000000000000e+00
1.000000000000e+02+j0.000000000000e+00
1.000000000000e+02+j0.000000000000e+00
1.000000000000e+02+j0.000000000000e+00
1.000000000000e+02+j0.000000000000e+00
1.000000000000e+02+j0.000000000000e+00
1.000000000000e+02+j0.000000000000e+00
1.000000000000e+02+j0.000000000000e+00
1.000000000000e+02+j0.000000000000e+00
1.000000000000e+02+j0.000000000000e+00
1.000000000000e+02+j0.000000000000e+00
1.000000000000e+02+j0.000000000000e+00
1.000000000000e+02+j0.000000000000e+00
1.000000000000e+02+j0.000000000000e+00
1.000000000000e+02+j0.000000000000e+00
1.000000000000e+02+j0.000000000000e+00
1.000000000000e+02+j0.000000000000e+00
1.000000000000e+02+j0.000000000000e+00
1.000000000000e+02+j0.000000000000e+00
1.000000000000e+02+j0.000000000000e+00
1.000000000000e+02+j0.000000000000e+00
1.000000000000e+02+j0.000000000000e+00
1.000000000000e+02+j0.000000000000e+00
1.000000000000e+02+j0.000000000000e+00
1.000000000000e+02+j0.000000000000e+00
</dep>
<dep ac.v(vout_biased) frequency>
1.676241203151e-07+j4.094192463241e-03
4.402085394970e-04+j2.098110101092e-01
1.726619303103e-03+j4.155225003527e-01
3.859334588993e-03+j6.212234402009e-01
6.838246100113e-03+j8.269086075537e-01
1.066320258205e-02+j1.032572781646e+00
1.533400984222e-02+j1.238210743488e+00
2.085043077453e-02+j1.443817276309e+00
2.721218538944e-02+j1.649387165997e+00
3.441895084951e-02+j1.854915201537e+00
4.247036151032e-02+j2.060396175455e+00
