<Qucs Dataset 25.1.2>
<indep frequency 200>
1.000000000000e+00
5.124623115578e+01
1.014924623116e+02
1.517386934673e+02
2.019849246231e+02
2.522311557789e+02
3.024773869347e+02
3.527236180905e+02
4.029698492462e+02
4.532160804020e+02
5.034623115578e+02
5.537085427136e+02
6.039547738693e+02
6.542010050251e+02
7.044472361809e+02
7.546934673367e+02
8.049396984925e+02
8.551859296482e+02
9.054321608040e+02
9.556783919598e+02
1.005924623116e+03
1.056170854271e+03
1.106417085427e+03
1.156663316583e+03
1.206909547739e+03
1.257155778894e+03
1.307402010050e+03
1.357648241206e+03
1.407894472362e+03
1.458140703518e+03
1.508386934673e+03
1.558633165829e+03
1.608879396985e+03
1.659125628141e+03
1.709371859296e+03
1.759618090452e+03
1.809864321608e+03
1.860110552764e+03
1.910356783920e+03
1.960603015075e+03
2.010849246231e+03
2.061095477387e+03
2.111341708543e+03
2.161587939698e+03
2.211834170854e+03
2.262080402010e+03
2.312326633166e+03
2.362572864322e+03
2.412819095477e+03
2.463065326633e+03
2.513311557789e+03
2.563557788945e+03
2.613804020100e+03
2.664050251256e+03
2.714296482412e+03
2.764542713568e+03
2.814788944724e+03
2.865035175879e+03
2.915281407035e+03
2.965527638191e+03
3.015773869347e+03
3.066020100503e+03
3.116266331658e+03
3.166512562814e+03
3.216758793970e+03
3.267005025126e+03
3.317251256281e+03
3.367497487437e+03
3.417743718593e+03
3.467989949749e+03
3.518236180905e+03
3.568482412060e+03
3.618728643216e+03
3.668974874372e+03
3.719221105528e+03
3.769467336683e+03
3.819713567839e+03
3.869959798995e+03
3.920206030151e+03
3.970452261307e+03
4.020698492462e+03
4.070944723618e+03
4.121190954774e+03
4.171437185930e+03
4.221683417085e+03
4.271929648241e+03
4.322175879397e+03
4.372422110553e+03
4.422668341709e+03
4.472914572864e+03
4.523160804020e+03
4.573407035176e+03
4.623653266332e+03
4.673899497487e+03
4.724145728643e+03
4.774391959799e+03
4.824638190955e+03
4.874884422111e+03
4.925130653266e+03
4.975376884422e+03
5.025623115578e+03
5.075869346734e+03
5.126115577889e+03
5.176361809045e+03
5.226608040201e+03
5.276854271357e+03
5.327100502513e+03
5.377346733668e+03
5.427592964824e+03
5.477839195980e+03
5.528085427136e+03
5.578331658291e+03
5.628577889447e+03
5.678824120603e+03
5.729070351759e+03
5.779316582915e+03
5.829562814070e+03
5.879809045226e+03
5.930055276382e+03
5.980301507538e+03
6.030547738693e+03
6.080793969849e+03
6.131040201005e+03
6.181286432161e+03
6.231532663317e+03
6.281778894472e+03
6.332025125628e+03
6.382271356784e+03
6.432517587940e+03
6.482763819095e+03
6.533010050251e+03
6.583256281407e+03
6.633502512563e+03
6.683748743719e+03
6.733994974874e+03
6.784241206030e+03
6.834487437186e+03
6.884733668342e+03
6.934979899498e+03
6.985226130653e+03
7.035472361809e+03
7.085718592965e+03
7.135964824121e+03
7.186211055276e+03
7.236457286432e+03
7.286703517588e+03
7.336949748744e+03
7.387195979900e+03
7.437442211055e+03
7.487688442211e+03
7.537934673367e+03
7.588180904523e+03
7.638427135678e+03
7.688673366834e+03
7.738919597990e+03
7.789165829146e+03
7.839412060302e+03
7.889658291457e+03
7.939904522613e+03
7.990150753769e+03
8.040396984925e+03
8.090643216080e+03
8.140889447236e+03
8.191135678392e+03
8.241381909548e+03
8.291628140704e+03
8.341874371859e+03
8.392120603015e+03
8.442366834171e+03
8.492613065327e+03
8.542859296482e+03
8.593105527638e+03
8.643351758794e+03
8.693597989950e+03
8.743844221106e+03
8.794090452261e+03
8.844336683417e+03
8.894582914573e+03
8.944829145729e+03
8.995075376884e+03
9.045321608040e+03
9.095567839196e+03
9.145814070352e+03
9.196060301508e+03
9.246306532663e+03
9.296552763819e+03
9.346798994975e+03
9.397045226131e+03
9.447291457286e+03
9.497537688442e+03
9.547783919598e+03
9.598030150754e+03
9.648276381910e+03
9.698522613065e+03
9.748768844221e+03
9.799015075377e+03
9.849261306533e+03
9.899507537688e+03
9.949753768844e+03
1.000000000000e+04
</indep>
<dep ac.v(highpass) frequency>
1.550424909570e-07+j3.769910600254e-04
4.070185493746e-04+j1.931151658537e-02
1.594737980980e-03+j3.820078480874e-02
3.558267986306e-03+j5.700074019740e-02
6.289302771653e-03+j7.566795145895e-02
9.776362635630e-03+j9.415990910650e-02
1.400491247577e-02+j1.124353096793e-01
1.895751000207e-02+j1.304543227203e-01
2.461398087082e-02+j1.481788370313e-01
3.095161751352e-02+j1.655726832160e-01
3.794539809012e-02+j1.826018300740e-01
4.556822175151e-02+j1.992345529904e-01
5.379115625415e-02+j2.154415730737e-01
6.258369392965e-02+j2.311961663962e-01
7.191401206915e-02+j2.464742432754e-01
8.174923392804e-02+j2.612543980865e-01
9.205568678065e-02+j2.755179305967e-01
1.027991537447e-01+j2.892488402547e-01
1.139451164375e-01+j3.024337952474e-01
1.254589859064e-01+j3.150620784378e-01
1.373063196798e-01+j3.271255125317e-01
1.494530232014e-01+j3.386183669815e-01
1.618655343219e-01+j3.495372492221e-01
1.745109899237e-01+j3.598809828623e-01
1.873573741343e-01+j3.696504754232e-01
2.003736479320e-01+j3.788485781313e-01
2.135298602645e-01+j3.874799401490e-01
2.267972410777e-01+j3.955508594700e-01
2.401482768897e-01+j4.030691325184e-01
2.535567697390e-01+j4.100439042919e-01
2.669978804966e-01+j4.164855206753e-01
2.804481576435e-01+j4.224053843339e-01
2.938855527046e-01+j4.278158153817e-01
3.072894235724e-01+j4.327299178108e-01
3.206405269808e-01+j4.371614524672e-01
3.339210013832e-01+j4.411247171755e-01
3.471143414606e-01+j4.446344344417e-01
3.602053654495e-01+j4.477056470087e-01
3.731801764151e-01+j4.503536214036e-01
3.860261185335e-01+j4.525937594934e-01
3.987317293696e-01+j4.544415179640e-01
4.112866890579e-01+j4.559123355502e-01
4.236817672113e-01+j4.570215677730e-01
4.359087683010e-01+j4.577844288828e-01
4.479604761687e-01+j4.582159406641e-01
4.598305982521e-01+j4.583308877244e-01
4.715137100319e-01+j4.581437788670e-01
4.830052001329e-01+j4.576688141365e-01
4.943012164498e-01+j4.569198571178e-01
5.053986136033e-01+j4.559104120741e-01
5.162949019777e-01+j4.546536055116e-01
5.269881985391e-01+j4.531621717752e-01
5.374771795897e-01+j4.514484422879e-01
5.477610355700e-01+j4.495243380698e-01
5.578394279886e-01+j4.474013651867e-01
5.677124485254e-01+j4.450906128018e-01
5.773805803282e-01+j4.426027535244e-01
5.868446615000e-01+j4.399480457705e-01
5.961058507549e-01+j4.371363378716e-01
6.051655952029e-01+j4.341770736908e-01
6.140256002148e-01+j4.310792995236e-01
6.226878013009e-01+j4.278516720822e-01
6.311543379378e-01+j4.245024673803e-01
6.394275292629e-01+j4.210395903535e-01
6.475098515576e-01+j4.174705850680e-01
6.554039174344e-01+j4.138026453837e-01
6.631124566422e-01+j4.100426259565e-01
6.706382984040e-01+j4.061970534738e-01
6.779843552002e-01+j4.022721380326e-01
6.851536079134e-01+j3.982737845802e-01
6.921490922512e-01+j3.942076043484e-01
6.989738863663e-01+j3.900789262193e-01
7.056310995954e-01+j3.858928079742e-01
7.121238622419e-01+j3.816540473790e-01
7.184553163298e-01+j3.773671930712e-01
7.246286072598e-01+j3.730365552179e-01
7.306468763029e-01+j3.686662159187e-01
7.365132538670e-01+j3.642600393350e-01
7.422308534812e-01+j3.598216815290e-01
7.478027664384e-01+j3.553546000016e-01
7.532320570475e-01+j3.508620629196e-01
7.585217584436e-01+j3.463471580282e-01
7.636748689122e-01+j3.418128012447e-01
7.686943486834e-01+j3.372617449331e-01
7.735831171565e-01+j3.326965858615e-01
7.783440505185e-01+j3.281197728438e-01
7.829799797202e-01+j3.235336140715e-01
7.874936887800e-01+j3.189402841390e-01
7.918879133832e-01+j3.143418307706e-01
7.961653397518e-01+j3.097401812547e-01
8.003286037572e-01+j3.051371485941e-01
8.043802902535e-01+j3.005344373790e-01
8.083229326091e-01+j2.959336493933e-01
8.121590124174e-01+j2.913362889603e-01
8.158909593677e-01+j2.867437680389e-01
8.195211512590e-01+j2.821574110786e-01
8.230519141425e-01+j2.775784596415e-01
8.264855225778e-01+j2.730080768017e-01
8.298241999890e-01+j2.684473513295e-01
8.330701191117e-01+j2.638973016705e-01
8.362254025158e-01+j2.593588797273e-01
8.392921231990e-01+j2.548329744530e-01
8.422723052373e-01+j2.503204152636e-01
8.451679244887e-01+j2.458219752791e-01
8.479809093389e-01+j2.413383743987e-01
8.507131414851e-01+j2.368702822205e-01
8.533664567498e-01+j2.324183208103e-01
8.559426459206e-01+j2.279830673282e-01
8.584434556098e-01+j2.235650565191e-01
8.608705891301e-01+j2.191647830745e-01
8.632257073819e-01+j2.147827038701e-01
8.655104297490e-01+j2.104192400874e-01
8.677263349987e-01+j2.060747792232e-01
8.698749621843e-01+j2.017496769939e-01
8.719578115471e-01+j1.974442591386e-01
8.739763454149e-01+j1.931588231280e-01
8.759319890960e-01+j1.888936397808e-01
8.778261317663e-01+j1.846489547961e-01
8.796601273482e-01+j1.804249902027e-01
8.814352953792e-01+j1.762219457315e-01
8.831529218707e-01+j1.720400001145e-01
8.848142601535e-01+j1.678793123140e-01
8.864205317116e-01+j1.637400226857e-01
8.879729270012e-01+j1.596222540792e-01
8.894726062570e-01+j1.555261128793e-01
8.909207002818e-01+j1.514516899906e-01
8.923183112231e-01+j1.473990617693e-01
8.936665133318e-01+j1.433682909044e-01
8.949663537073e-01+j1.393594272502e-01
8.962188530250e-01+j1.353725086152e-01
8.974250062486e-01+j1.314075615058e-01
8.985857833258e-01+j1.274646018316e-01
8.997021298681e-01+j1.235436355703e-01
9.007749678143e-01+j1.196446593972e-01
9.018051960780e-01+j1.157676612800e-01
9.027936911790e-01+j1.119126210406e-01
9.037413078591e-01+j1.080795108858e-01
9.046488796821e-01+j1.042682959096e-01
9.055172196182e-01+j1.004789345664e-01
9.063471206137e-01+j9.671137911911e-02
9.071393561450e-01+j9.296557606154e-02
9.078946807579e-01+j8.924146651779e-02
9.086138305932e-01+j8.553898661903e-02
9.092975238970e-01+j8.185806785934e-02
9.099464615175e-01+j7.819863743147e-02
9.105613273881e-01+j7.456061854378e-02
9.111427889971e-01+j7.094393071927e-02
9.116914978442e-01+j6.734849007765e-02
9.122080898843e-01+j6.377420960140e-02
9.126931859582e-01+j6.022099938668e-02
9.131473922124e-01+j5.668876687988e-02
9.135713005054e-01+j5.317741710058e-02
9.139654888032e-01+j4.968685285168e-02
9.143305215636e-01+j4.621697491735e-02
9.146669501089e-01+j4.276768224947e-02
9.149753129880e-01+j3.933887214323e-02
9.152561363285e-01+j3.593044040234e-02
9.155099341777e-01+j3.254228149463e-02
9.157372088344e-01+j2.917428869828e-02
9.159384511709e-01+j2.582635423941e-02
9.161141409453e-01+j2.249836942144e-02
9.162647471047e-01+j1.919022474660e-02
9.163907280801e-01+j1.590181003005e-02
9.164925320721e-01+j1.263301450706e-02
9.165705973280e-01+j9.383726933556e-03
9.166253524116e-01+j6.153835680431e-03
9.166572164646e-01+j2.943228821945e-03
9.166665994600e-01-j2.482057814518e-04
9.166539024486e-01-j3.420580405583e-03
9.166195177981e-01-j6.574007390000e-03
9.165638294251e-01-j9.708599070150e-03
9.164872130204e-01-j1.282446771401e-02
9.163900362673e-01-j1.592172546293e-02
9.162726590542e-01-j1.900048427648e-02
9.161354336805e-01-j2.206085588103e-02
9.159787050561e-01-j2.510295172188e-02
9.158028108963e-01-j2.812688291884e-02
9.156080819093e-01-j3.113276022483e-02
9.153948419799e-01-j3.412069398762e-02
9.151634083464e-01-j3.709079411434e-02
9.149140917734e-01-j4.004317003859e-02
9.146471967191e-01-j4.297793069025e-02
9.143630214975e-01-j4.589518446747e-02
9.140618584366e-01-j4.879503921105e-02
9.137439940312e-01-j5.167760218084e-02
9.134097090918e-01-j5.454298003424e-02
9.130592788889e-01-j5.739127880645e-02
9.126929732936e-01-j6.022260389261e-02
9.123110569135e-01-j6.303706003157e-02
9.119137892250e-01-j6.583475129120e-02
9.115014247019e-01-j6.861578105525e-02
9.110742129402e-01-j7.138025201154e-02
9.106323987793e-01-j7.412826614153e-02
9.101762224196e-01-j7.685992471103e-02
9.097059195372e-01-j7.957532826221e-02
9.092217213948e-01-j8.227457660656e-02
9.087238549496e-01-j8.495776881895e-02
9.082125429584e-01-j8.762500323268e-02
9.076880040797e-01-j9.027637743533e-02
9.071504529723e-01-j9.291198826557e-02
</dep>
<dep ac.v(input) frequency>
1.000000000000e+00+j0.000000000000e+00
1.000000000000e+00+j0.000000000000e+00
1.000000000000e+00+j0.000000000000e+00
1.000000000000e+00+j0.000000000000e+00
1.000000000000e+00+j0.000000000000e+00
1.000000000000e+00+j0.000000000000e+00
1.000000000000e+00+j0.000000000000e+00
1.000000000000e+00+j0.000000000000e+00
1.000000000000e+00+j0.000000000000e+00
1.000000000000e+00+j0.000000000000e+00
1.000000000000e+00+j0.000000000000e+00
1.000000000000e+00+j0.000000000000e+00
1.000000000000e+00+j0.000000000000e+00
1.000000000000e+00+j0.000000000000e+00
1.000000000000e+00+j0.000000000000e+00
1.000000000000e+00+j0.000000000000e+00
1.000000000000e+00+j0.000000000000e+00
1.000000000000e+00+j0.000000000000e+00
1.000000000000e+00+j0.000000000000e+00
1.000000000000e+00+j0.000000000000e+00
1.000000000000e+00+j0.000000000000e+00
1.000000000000e+00+j0.000000000000e+00
1.000000000000e+00+j0.000000000000e+00
1.000000000000e+00+j0.000000000000e+00
1.000000000000e+00+j0.000000000000e+00
1.000000000000e+00+j0.000000000000e+00
1.000000000000e+00+j0.000000000000e+00
1.000000000000e+00+j0.000000000000e+00
1.000000000000e+00+j0.000000000000e+00
1.000000000000e+00+j0.000000000000e+00
1.000000000000e+00+j0.000000000000e+00
1.000000000000e+00+j0.000000000000e+00
1.000000000000e+00+j0.000000000000e+00
1.000000000000e+00+j0.000000000000e+00
1.000000000000e+00+j0.000000000000e+00
1.000000000000e+00+j0.000000000000e+00
1.000000000000e+00+j0.000000000000e+00
1.000000000000e+00+j0.000000000000e+00
1.000000000000e+00+j0.000000000000e+00
1.000000000000e+00+j0.000000000000e+00
1.000000000000e+00+j0.000000000000e+00
1.000000000000e+00+j0.000000000000e+00
1.000000000000e+00+j0.000000000000e+00
1.000000000000e+00+j0.000000000000e+00
1.000000000000e+00+j0.000000000000e+00
1.000000000000e+00+j0.000000000000e+00
1.000000000000e+00+j0.000000000000e+00
1.000000000000e+00+j0.000000000000e+00
1.000000000000e+00+j0.000000000000e+00
1.000000000000e+00+j0.000000000000e+00
1.000000000000e+00+j0.000000000000e+00
1.000000000000e+00+j0.000000000000e+00
1.000000000000e+00+j0.000000000000e+00
1.000000000000e+00+j0.000000000000e+00
1.000000000000e+00+j0.000000000000e+00
1.000000000000e+00+j0.000000000000e+00
1.000000000000e+00+j0.000000000000e+00
1.000000000000e+00+j0.000000000000e+00
1.000000000000e+00+j0.000000000000e+00
1.000000000000e+00+j0.000000000000e+00
1.000000000000e+00+j0.000000000000e+00
1.000000000000e+00+j0.000000000000e+00
1.000000000000e+00+j0.000000000000e+00
1.000000000000e+00+j0.000000000000e+00
1.000000000000e+00+j0.000000000000e+00
1.000000000000e+00+j0.000000000000e+00
1.000000000000e+00+j0.000000000000e+00
1.000000000000e+00+j0.000000000000e+00
1.000000000000e+00+j0.000000000000e+00
1.000000000000e+00+j0.000000000000e+00
1.000000000000e+00+j0.000000000000e+00
1.000000000000e+00+j0.000000000000e+00
1.000000000000e+00+j0.000000000000e+00
1.000000000000e+00+j0.000000000000e+00
1.000000000000e+00+j0.000000000000e+00
1.000000000000e+00+j0.000000000000e+00
1.000000000000e+00+j0.000000000000e+00
1.000000000000e+00+j0.000000000000e+00
1.000000000000e+00+j0.000000000000e+00
1.000000000000e+00+j0.000000000000e+00
1.000000000000e+00+j0.000000000000e+00
1.000000000000e+00+j0.000000000000e+00
1.000000000000e+00+j0.000000000000e+00
1.000000000000e+00+j0.000000000000e+00
1.000000000000e+00+j0.000000000000e+00
1.000000000000e+00+j0.000000000000e+00
1.000000000000e+00+j0.000000000000e+00
1.000000000000e+00+j0.000000000000e+00
1.000000000000e+00+j0.000000000000e+00
1.000000000000e+00+j0.000000000000e+00
1.000000000000e+00+j0.000000000000e+00
1.000000000000e+00+j0.000000000000e+00
1.000000000000e+00+j0.000000000000e+00
1.000000000000e+00+j0.000000000000e+00
1.000000000000e+00+j0.000000000000e+00
1.000000000000e+00+j0.000000000000e+00
1.000000000000e+00+j0.000000000000e+00
1.000000000000e+00+j0.000000000000e+00
1.000000000000e+00+j0.000000000000e+00
1.000000000000e+00+j0.000000000000e+00
1.000000000000e+00+j0.000000000000e+00
1.000000000000e+00+j0.000000000000e+00
1.000000000000e+00+j0.000000000000e+00
1.000000000000e+00+j0.000000000000e+00
1.000000000000e+00+j0.000000000000e+00
1.000000000000e+00+j0.000000000000e+00
1.000000000000e+00+j0.000000000000e+00
1.000000000000e+00+j0.000000000000e+00
1.000000000000e+00+j0.000000000000e+00
1.000000000000e+00+j0.000000000000e+00
1.000000000000e+00+j0.000000000000e+00
1.000000000000e+00+j0.000000000000e+00
1.000000000000e+00+j0.000000000000e+00
1.000000000000e+00+j0.000000000000e+00
1.000000000000e+00+j0.000000000000e+00
1.000000000000e+00+j0.000000000000e+00
1.000000000000e+00+j0.000000000000e+00
1.000000000000e+00+j0.000000000000e+00
1.000000000000e+00+j0.000000000000e+00
1.000000000000e+00+j0.000000000000e+00
1.000000000000e+00+j0.000000000000e+00
1.000000000000e+00+j0.000000000000e+00
1.000000000000e+00+j0.000000000000e+00
1.000000000000e+00+j0.000000000000e+00
1.000000000000e+00+j0.000000000000e+00
1.000000000000e+00+j0.000000000000e+00
1.000000000000e+00+j0.000000000000e+00
1.000000000000e+00+j0.000000000000e+00
1.000000000000e+00+j0.000000000000e+00
1.000000000000e+00+j0.000000000000e+00
1.000000000000e+00+j0.000000000000e+00
1.000000000000e+00+j0.000000000000e+00
1.000000000000e+00+j0.000000000000e+00
1.000000000000e+00+j0.000000000000e+00
1.000000000000e+00+j0.000000000000e+00
1.000000000000e+00+j0.000000000000e+00
1.000000000000e+00+j0.000000000000e+00
1.000000000000e+00+j0.000000000000e+00
1.000000000000e+00+j0.000000000000e+00
1.000000000000e+00+j0.000000000000e+00
1.000000000000e+00+j0.000000000000e+00
1.000000000000e+00+j0.000000000000e+00
1.000000000000e+00+j0.000000000000e+00
1.000000000000e+00+j0.000000000000e+00
1.000000000000e+00+j0.000000000000e+00
1.000000000000e+00+j0.000000000000e+00
1.000000000000e+00+j0.000000000000e+00
1.000000000000e+00+j0.000000000000e+00
1.000000000000e+00+j0.000000000000e+00
1.000000000000e+00+j0.000000000000e+00
1.000000000000e+00+j0.000000000000e+00
1.000000000000e+00+j0.000000000000e+00
1.000000000000e+00+j0.000000000000e+00
1.000000000000e+00+j0.000000000000e+00
1.000000000000e+00+j0.000000000000e+00
1.000000000000e+00+j0.000000000000e+00
1.000000000000e+00+j0.000000000000e+00
1.000000000000e+00+j0.000000000000e+00
1.000000000000e+00+j0.000000000000e+00
1.000000000000e+00+j0.000000000000e+00
1.000000000000e+00+j0.000000000000e+00
1.000000000000e+00+j0.000000000000e+00
1.000000000000e+00+j0.000000000000e+00
1.000000000000e+00+j0.000000000000e+00
1.000000000000e+00+j0.000000000000e+00
1.000000000000e+00+j0.000000000000e+00
1.000000000000e+00+j0.000000000000e+00
1.000000000000e+00+j0.000000000000e+00
1.000000000000e+00+j0.000000000000e+00
1.000000000000e+00+j0.000000000000e+00
1.000000000000e+00+j0.000000000000e+00
1.000000000000e+00+j0.000000000000e+00
1.000000000000e+00+j0.000000000000e+00
1.000000000000e+00+j0.000000000000e+00
1.000000000000e+00+j0.000000000000e+00
1.000000000000e+00+j0.000000000000e+00
1.000000000000e+00+j0.000000000000e+00
1.000000000000e+00+j0.000000000000e+00
1.000000000000e+00+j0.000000000000e+00
1.000000000000e+00+j0.000000000000e+00
1.000000000000e+00+j0.000000000000e+00
1.000000000000e+00+j0.000000000000e+00
1.000000000000e+00+j0.000000000000e+00
1.000000000000e+00+j0.000000000000e+00
1.000000000000e+00+j0.000000000000e+00
1.000000000000e+00+j0.000000000000e+00
1.000000000000e+00+j0.000000000000e+00
1.000000000000e+00+j0.000000000000e+00
1.000000000000e+00+j0.000000000000e+00
1.000000000000e+00+j0.000000000000e+00
1.000000000000e+00+j0.000000000000e+00
1.000000000000e+00+j0.000000000000e+00
1.000000000000e+00+j0.000000000000e+00
1.000000000000e+00+j0.000000000000e+00
1.000000000000e+00+j0.000000000000e+00
1.000000000000e+00+j0.000000000000e+00
1.000000000000e+00+j0.000000000000e+00
1.000000000000e+00+j0.000000000000e+00
1.000000000000e+00+j0.000000000000e+00
1.000000000000e+00+j0.000000000000e+00
</dep>
<dep ac.v(lowpass) frequency>
4.625388240389e-03+j6.766758087825e-02
9.287287606884e-01+j2.472920100161e-01
9.835047357039e-01+j1.043441508802e-01
9.930239707080e-01+j3.924607189035e-02
9.945641986052e-01-j3.284454708154e-03
9.932466538760e-01-j3.632382476408e-02
9.903848087160e-01-j6.442007890807e-02
9.864466023709e-01-j8.954482016942e-02
9.816409945159e-01-j1.126791657071e-01
9.760804211759e-01-j1.343586261267e-01
9.698364000099e-01-j1.548949276123e-01
